Vivado Simulator 2019.2
Time resolution is 1 ps
          1 xxxxxxxx
          2 00000000
write reg  2 00020000
          3 00000004
write reg  1 00000008
          4 00000008
          5 00001000
write reg  2 0001ffe0
          6 00001004
1010000 WRITE: 131068   8 1
1030000 WRITE: 131069   0 1
1050000 WRITE: 131070   0 1
          7 00001008
1070000 WRITE: 131071   0 1
1230000 WRITE: 131064   0 1
1250000 WRITE: 131065   0 1
1270000 WRITE: 131066   0 1
          8 0000100c
1290000 WRITE: 131067   0 1
write reg  8 00020000
          9 00001010
write reg 15 00000001
         10 00001014
1730000 WRITE: 131052   1 1
1750000 WRITE: 131053   0 1
1770000 WRITE: 131054   0 1
         11 00001018
1790000 WRITE: 131055   0 1
write reg 15 00000001
         12 0000101c
2090000 WRITE: 131048   1 1
2110000 WRITE: 131049   0 1
2130000 WRITE: 131050   0 1
         13 00001020
2150000 WRITE: 131051   0 1
         14 00001024
         15 00001044
         16 00001048
write reg 14 00000001
write reg 15 0000000c
         17 0000104c
         18 00001050
         19 00001024
         20 00001028
write reg 11 00000001
         21 0000102c
write reg 10 00000001
write reg  1 00001030
         22 00001030
         23 0000109c
write reg 12 00000001
         24 000010a0
write reg 10 00000000
         25 000010a4
write reg 13 00000001
         26 000010a8
         27 000010ac
write reg 10 00000001
         28 000010b0
write reg 11 00000000
         29 000010b4
write reg 12 00000002
         30 000010b8
         31 000010bc
         32 000010c0
         33 00001030
write reg 15 00000001
         34 00001034
5610000 WRITE: 131052   1 1
5630000 WRITE: 131053   0 1
5650000 WRITE: 131054   0 1
         35 00001038
5670000 WRITE: 131055   0 1
         36 0000103c
write reg 15 00000001
write reg 15 00000002
         37 00001040
6230000 WRITE: 131048   2 1
6250000 WRITE: 131049   0 1
6270000 WRITE: 131050   0 1
         38 00001044
6290000 WRITE: 131051   0 1
         39 00001048
write reg 14 00000002
write reg 15 0000000c
         40 0000104c
         41 00001050
         42 00001024
         43 00001028
write reg 11 00000002
         44 0000102c
write reg 10 00000001
write reg  1 00001030
         45 00001030
         46 0000109c
write reg 12 00000001
         47 000010a0
write reg 10 00000000
         48 000010a4
write reg 13 00000000
         49 000010a8
         50 000010ac
         51 000010b0
write reg 11 00000001
         52 000010b4
write reg 12 00000002
         53 000010b8
         54 000010bc
         55 000010a4
write reg 13 00000001
         56 000010a8
         57 000010ac
write reg 10 00000002
         58 000010b0
write reg 11 00000000
         59 000010b4
write reg 12 00000004
         60 000010b8
         61 000010bc
         62 000010c0
         63 00001030
write reg 15 00000002
         64 00001034
10450000 WRITE: 131052   2 1
10470000 WRITE: 131053   0 1
10490000 WRITE: 131054   0 1
         65 00001038
10510000 WRITE: 131055   0 1
         66 0000103c
write reg 15 00000002
write reg 15 00000003
         67 00001040
11070000 WRITE: 131048   3 1
11090000 WRITE: 131049   0 1
11110000 WRITE: 131050   0 1
         68 00001044
11130000 WRITE: 131051   0 1
         69 00001048
write reg 14 00000003
write reg 15 0000000c
         70 0000104c
         71 00001050
         72 00001024
         73 00001028
write reg 11 00000003
         74 0000102c
write reg 10 00000002
write reg  1 00001030
         75 00001030
         76 0000109c
write reg 12 00000002
         77 000010a0
write reg 10 00000000
         78 000010a4
write reg 13 00000001
         79 000010a8
         80 000010ac
write reg 10 00000002
         81 000010b0
write reg 11 00000001
         82 000010b4
write reg 12 00000004
         83 000010b8
         84 000010bc
         85 000010a4
write reg 13 00000001
         86 000010a8
         87 000010ac
write reg 10 00000006
         88 000010b0
write reg 11 00000000
         89 000010b4
write reg 12 00000008
         90 000010b8
         91 000010bc
         92 000010c0
         93 00001030
write reg 15 00000006
         94 00001034
15290000 WRITE: 131052   6 1
15310000 WRITE: 131053   0 1
15330000 WRITE: 131054   0 1
         95 00001038
15350000 WRITE: 131055   0 1
         96 0000103c
write reg 15 00000003
write reg 15 00000004
         97 00001040
15910000 WRITE: 131048   4 1
15930000 WRITE: 131049   0 1
15950000 WRITE: 131050   0 1
         98 00001044
15970000 WRITE: 131051   0 1
         99 00001048
write reg 14 00000004
write reg 15 0000000c
        100 0000104c
        101 00001050
        102 00001024
        103 00001028
write reg 11 00000004
        104 0000102c
write reg 10 00000006
write reg  1 00001030
        105 00001030
        106 0000109c
write reg 12 00000006
        107 000010a0
write reg 10 00000000
        108 000010a4
write reg 13 00000000
        109 000010a8
        110 000010ac
        111 000010b0
write reg 11 00000002
        112 000010b4
write reg 12 0000000c
        113 000010b8
        114 000010bc
        115 000010a4
write reg 13 00000000
        116 000010a8
        117 000010ac
        118 000010b0
write reg 11 00000001
        119 000010b4
write reg 12 00000018
        120 000010b8
        121 000010bc
        122 000010a4
write reg 13 00000001
        123 000010a8
        124 000010ac
write reg 10 00000018
        125 000010b0
write reg 11 00000000
        126 000010b4
write reg 12 00000030
        127 000010b8
        128 000010bc
        129 000010c0
        130 00001030
write reg 15 00000018
        131 00001034
21110000 WRITE: 131052  24 1
21130000 WRITE: 131053   0 1
21150000 WRITE: 131054   0 1
        132 00001038
21170000 WRITE: 131055   0 1
        133 0000103c
write reg 15 00000004
write reg 15 00000005
        134 00001040
21730000 WRITE: 131048   5 1
21750000 WRITE: 131049   0 1
21770000 WRITE: 131050   0 1
        135 00001044
21790000 WRITE: 131051   0 1
        136 00001048
write reg 14 00000005
write reg 15 0000000c
        137 0000104c
        138 00001050
        139 00001024
        140 00001028
write reg 11 00000005
        141 0000102c
write reg 10 00000018
write reg  1 00001030
        142 00001030
        143 0000109c
write reg 12 00000018
        144 000010a0
write reg 10 00000000
        145 000010a4
write reg 13 00000001
        146 000010a8
        147 000010ac
write reg 10 00000018
        148 000010b0
write reg 11 00000002
        149 000010b4
write reg 12 00000030
        150 000010b8
        151 000010bc
        152 000010a4
write reg 13 00000000
        153 000010a8
        154 000010ac
        155 000010b0
write reg 11 00000001
        156 000010b4
write reg 12 00000060
        157 000010b8
        158 000010bc
        159 000010a4
write reg 13 00000001
        160 000010a8
        161 000010ac
write reg 10 00000078
        162 000010b0
write reg 11 00000000
        163 000010b4
write reg 12 000000c0
        164 000010b8
        165 000010bc
        166 000010c0
        167 00001030
write reg 15 00000078
        168 00001034
26930000 WRITE: 131052 120 1
26950000 WRITE: 131053   0 1
26970000 WRITE: 131054   0 1
        169 00001038
26990000 WRITE: 131055   0 1
        170 0000103c
write reg 15 00000005
write reg 15 00000006
        171 00001040
27550000 WRITE: 131048   6 1
27570000 WRITE: 131049   0 1
27590000 WRITE: 131050   0 1
        172 00001044
27610000 WRITE: 131051   0 1
        173 00001048
write reg 14 00000006
write reg 15 0000000c
        174 0000104c
        175 00001050
        176 00001024
        177 00001028
write reg 11 00000006
        178 0000102c
write reg 10 00000078
write reg  1 00001030
        179 00001030
        180 0000109c
write reg 12 00000078
        181 000010a0
write reg 10 00000000
        182 000010a4
write reg 13 00000000
        183 000010a8
        184 000010ac
        185 000010b0
write reg 11 00000003
        186 000010b4
write reg 12 000000f0
        187 000010b8
        188 000010bc
        189 000010a4
write reg 13 00000001
        190 000010a8
        191 000010ac
write reg 10 000000f0
        192 000010b0
write reg 11 00000001
        193 000010b4
write reg 12 000001e0
        194 000010b8
        195 000010bc
        196 000010a4
write reg 13 00000001
        197 000010a8
        198 000010ac
write reg 10 000002d0
        199 000010b0
write reg 11 00000000
        200 000010b4
write reg 12 000003c0
        201 000010b8
        202 000010bc
        203 000010c0
        204 00001030
write reg 15 000002d0
        205 00001034
32750000 WRITE: 131052 208 1
32770000 WRITE: 131053   2 1
32790000 WRITE: 131054   0 1
        206 00001038
32810000 WRITE: 131055   0 1
        207 0000103c
write reg 15 00000006
write reg 15 00000007
        208 00001040
33370000 WRITE: 131048   7 1
33390000 WRITE: 131049   0 1
33410000 WRITE: 131050   0 1
        209 00001044
33430000 WRITE: 131051   0 1
        210 00001048
write reg 14 00000007
write reg 15 0000000c
        211 0000104c
        212 00001050
        213 00001024
        214 00001028
write reg 11 00000007
        215 0000102c
write reg 10 000002d0
write reg  1 00001030
        216 00001030
        217 0000109c
write reg 12 000002d0
        218 000010a0
write reg 10 00000000
        219 000010a4
write reg 13 00000001
        220 000010a8
        221 000010ac
write reg 10 000002d0
        222 000010b0
write reg 11 00000003
        223 000010b4
write reg 12 000005a0
        224 000010b8
        225 000010bc
        226 000010a4
write reg 13 00000001
        227 000010a8
        228 000010ac
write reg 10 00000870
        229 000010b0
write reg 11 00000001
        230 000010b4
write reg 12 00000b40
        231 000010b8
        232 000010bc
        233 000010a4
write reg 13 00000001
        234 000010a8
        235 000010ac
write reg 10 000013b0
        236 000010b0
write reg 11 00000000
        237 000010b4
write reg 12 00001680
        238 000010b8
        239 000010bc
        240 000010c0
        241 00001030
write reg 15 000013b0
        242 00001034
38570000 WRITE: 131052 176 1
38590000 WRITE: 131053  19 1
38610000 WRITE: 131054   0 1
        243 00001038
38630000 WRITE: 131055   0 1
        244 0000103c
write reg 15 00000007
write reg 15 00000008
        245 00001040
39190000 WRITE: 131048   8 1
39210000 WRITE: 131049   0 1
39230000 WRITE: 131050   0 1
        246 00001044
39250000 WRITE: 131051   0 1
        247 00001048
write reg 14 00000008
write reg 15 0000000c
        248 0000104c
        249 00001050
        250 00001024
        251 00001028
write reg 11 00000008
        252 0000102c
write reg 10 000013b0
write reg  1 00001030
        253 00001030
        254 0000109c
write reg 12 000013b0
        255 000010a0
write reg 10 00000000
        256 000010a4
write reg 13 00000000
        257 000010a8
        258 000010ac
        259 000010b0
write reg 11 00000004
        260 000010b4
write reg 12 00002760
        261 000010b8
        262 000010bc
        263 000010a4
write reg 13 00000000
        264 000010a8
        265 000010ac
        266 000010b0
write reg 11 00000002
        267 000010b4
write reg 12 00004ec0
        268 000010b8
        269 000010bc
        270 000010a4
write reg 13 00000000
        271 000010a8
        272 000010ac
        273 000010b0
write reg 11 00000001
        274 000010b4
write reg 12 00009d80
        275 000010b8
        276 000010bc
        277 000010a4
write reg 13 00000001
        278 000010a8
        279 000010ac
write reg 10 00009d80
        280 000010b0
write reg 11 00000000
        281 000010b4
write reg 12 00013b00
        282 000010b8
        283 000010bc
        284 000010c0
        285 00001030
write reg 15 00009d80
        286 00001034
45370000 WRITE: 131052 128 1
45390000 WRITE: 131053 157 1
45410000 WRITE: 131054   0 1
        287 00001038
45430000 WRITE: 131055   0 1
        288 0000103c
write reg 15 00000008
write reg 15 00000009
        289 00001040
45990000 WRITE: 131048   9 1
46010000 WRITE: 131049   0 1
46030000 WRITE: 131050   0 1
        290 00001044
46050000 WRITE: 131051   0 1
        291 00001048
write reg 14 00000009
write reg 15 0000000c
        292 0000104c
        293 00001050
        294 00001024
        295 00001028
write reg 11 00000009
        296 0000102c
write reg 10 00009d80
write reg  1 00001030
        297 00001030
        298 0000109c
write reg 12 00009d80
        299 000010a0
write reg 10 00000000
        300 000010a4
write reg 13 00000001
        301 000010a8
        302 000010ac
write reg 10 00009d80
        303 000010b0
write reg 11 00000004
        304 000010b4
write reg 12 00013b00
        305 000010b8
        306 000010bc
        307 000010a4
write reg 13 00000000
        308 000010a8
        309 000010ac
        310 000010b0
write reg 11 00000002
        311 000010b4
write reg 12 00027600
        312 000010b8
        313 000010bc
        314 000010a4
write reg 13 00000000
        315 000010a8
        316 000010ac
        317 000010b0
write reg 11 00000001
        318 000010b4
write reg 12 0004ec00
        319 000010b8
        320 000010bc
        321 000010a4
write reg 13 00000001
        322 000010a8
        323 000010ac
write reg 10 00058980
        324 000010b0
write reg 11 00000000
        325 000010b4
write reg 12 0009d800
        326 000010b8
        327 000010bc
        328 000010c0
        329 00001030
write reg 15 00058980
        330 00001034
52170000 WRITE: 131052 128 1
52190000 WRITE: 131053 137 1
52210000 WRITE: 131054   5 1
        331 00001038
52230000 WRITE: 131055   0 1
        332 0000103c
write reg 15 00000009
write reg 15 0000000a
        333 00001040
52790000 WRITE: 131048  10 1
52810000 WRITE: 131049   0 1
52830000 WRITE: 131050   0 1
        334 00001044
52850000 WRITE: 131051   0 1
        335 00001048
write reg 14 0000000a
write reg 15 0000000c
        336 0000104c
        337 00001050
        338 00001024
        339 00001028
write reg 11 0000000a
        340 0000102c
write reg 10 00058980
write reg  1 00001030
        341 00001030
        342 0000109c
write reg 12 00058980
        343 000010a0
write reg 10 00000000
        344 000010a4
write reg 13 00000000
        345 000010a8
        346 000010ac
        347 000010b0
write reg 11 00000005
        348 000010b4
write reg 12 000b1300
        349 000010b8
        350 000010bc
        351 000010a4
write reg 13 00000001
        352 000010a8
        353 000010ac
write reg 10 000b1300
        354 000010b0
write reg 11 00000002
        355 000010b4
write reg 12 00162600
        356 000010b8
        357 000010bc
        358 000010a4
write reg 13 00000000
        359 000010a8
        360 000010ac
        361 000010b0
write reg 11 00000001
        362 000010b4
write reg 12 002c4c00
        363 000010b8
        364 000010bc
        365 000010a4
write reg 13 00000001
        366 000010a8
        367 000010ac
write reg 10 00375f00
        368 000010b0
write reg 11 00000000
        369 000010b4
write reg 12 00589800
        370 000010b8
        371 000010bc
        372 000010c0
        373 00001030
write reg 15 00375f00
        374 00001034
58970000 WRITE: 131052   0 1
58990000 WRITE: 131053  95 1
59010000 WRITE: 131054  55 1
        375 00001038
59030000 WRITE: 131055   0 1
        376 0000103c
write reg 15 0000000a
write reg 15 0000000b
        377 00001040
59590000 WRITE: 131048  11 1
59610000 WRITE: 131049   0 1
59630000 WRITE: 131050   0 1
        378 00001044
59650000 WRITE: 131051   0 1
        379 00001048
write reg 14 0000000b
write reg 15 0000000c
        380 0000104c
        381 00001050
        382 00001024
        383 00001028
write reg 11 0000000b
        384 0000102c
write reg 10 00375f00
write reg  1 00001030
        385 00001030
        386 0000109c
write reg 12 00375f00
        387 000010a0
write reg 10 00000000
        388 000010a4
write reg 13 00000001
        389 000010a8
        390 000010ac
write reg 10 00375f00
        391 000010b0
write reg 11 00000005
        392 000010b4
write reg 12 006ebe00
        393 000010b8
        394 000010bc
        395 000010a4
write reg 13 00000001
        396 000010a8
        397 000010ac
write reg 10 00a61d00
        398 000010b0
write reg 11 00000002
        399 000010b4
write reg 12 00dd7c00
        400 000010b8
        401 000010bc
        402 000010a4
write reg 13 00000000
        403 000010a8
        404 000010ac
        405 000010b0
write reg 11 00000001
        406 000010b4
write reg 12 01baf800
        407 000010b8
        408 000010bc
        409 000010a4
write reg 13 00000001
        410 000010a8
        411 000010ac
write reg 10 02611500
        412 000010b0
write reg 11 00000000
        413 000010b4
write reg 12 0375f000
        414 000010b8
        415 000010bc
        416 000010c0
        417 00001030
write reg 15 02611500
        418 00001034
65770000 WRITE: 131052   0 1
65790000 WRITE: 131053  21 1
65810000 WRITE: 131054  97 1
        419 00001038
65830000 WRITE: 131055   2 1
        420 0000103c
write reg 15 0000000b
write reg 15 0000000c
        421 00001040
66390000 WRITE: 131048  12 1
66410000 WRITE: 131049   0 1
66430000 WRITE: 131050   0 1
        422 00001044
66450000 WRITE: 131051   0 1
        423 00001048
write reg 14 0000000c
write reg 15 0000000c
        424 0000104c
        425 00001050
        426 00001024
        427 00001028
write reg 11 0000000c
        428 0000102c
write reg 10 02611500
write reg  1 00001030
        429 00001030
        430 0000109c
write reg 12 02611500
        431 000010a0
write reg 10 00000000
        432 000010a4
write reg 13 00000000
        433 000010a8
        434 000010ac
        435 000010b0
write reg 11 00000006
        436 000010b4
write reg 12 04c22a00
        437 000010b8
        438 000010bc
        439 000010a4
write reg 13 00000000
        440 000010a8
        441 000010ac
        442 000010b0
write reg 11 00000003
        443 000010b4
write reg 12 09845400
        444 000010b8
        445 000010bc
        446 000010a4
write reg 13 00000001
        447 000010a8
        448 000010ac
write reg 10 09845400
        449 000010b0
write reg 11 00000001
        450 000010b4
write reg 12 1308a800
        451 000010b8
        452 000010bc
        453 000010a4
write reg 13 00000001
        454 000010a8
        455 000010ac
write reg 10 1c8cfc00
        456 000010b0
write reg 11 00000000
        457 000010b4
write reg 12 26115000
        458 000010b8
        459 000010bc
        460 000010c0
        461 00001030
write reg 15 1c8cfc00
        462 00001034
72570000 WRITE: 131052   0 1
72590000 WRITE: 131053 252 1
72610000 WRITE: 131054 140 1
        463 00001038
72630000 WRITE: 131055  28 1
        464 0000103c
write reg 15 0000000c
write reg 15 0000000d
        465 00001040
73190000 WRITE: 131048  13 1
73210000 WRITE: 131049   0 1
73230000 WRITE: 131050   0 1
        466 00001044
73250000 WRITE: 131051   0 1
        467 00001048
write reg 14 0000000d
write reg 15 0000000c
        468 0000104c
        469 00001050
write reg 15 0000000a
        470 00001054
74090000 WRITE: 131044  10 1
74110000 WRITE: 131045   0 1
74130000 WRITE: 131046   0 1
        471 00001058
74150000 WRITE: 131047   0 1
        472 0000105c
        473 0000107c
        474 00001080
write reg 15 0000000a
        475 00001084
        476 0000105c
        477 00001060
write reg 11 0000000a
        478 00001064
write reg 10 1c8cfc00
write reg  1 00001068
        479 00001068
        480 000010c0
        481 000010c4
        482 000010c8
write reg 12 0000000a
        483 000010cc
write reg 11 1c8cfc00
        484 000010d0
write reg 10 ffffffff
        485 000010d4
        486 000010d8
write reg 13 00000001
        487 000010dc
        488 000010e0
        489 000010e4
write reg 12 00000014
        490 000010e8
write reg 13 00000002
        491 000010ec
        492 000010f0
        493 000010e0
        494 000010e4
write reg 12 00000028
        495 000010e8
write reg 13 00000004
        496 000010ec
        497 000010f0
        498 000010e0
        499 000010e4
write reg 12 00000050
        500 000010e8
write reg 13 00000008
        501 000010ec
        502 000010f0
        503 000010e0
        504 000010e4
write reg 12 000000a0
        505 000010e8
write reg 13 00000010
        506 000010ec
        507 000010f0
        508 000010e0
        509 000010e4
write reg 12 00000140
        510 000010e8
write reg 13 00000020
        511 000010ec
        512 000010f0
        513 000010e0
        514 000010e4
write reg 12 00000280
        515 000010e8
write reg 13 00000040
        516 000010ec
        517 000010f0
        518 000010e0
        519 000010e4
write reg 12 00000500
        520 000010e8
write reg 13 00000080
        521 000010ec
        522 000010f0
        523 000010e0
        524 000010e4
write reg 12 00000a00
        525 000010e8
write reg 13 00000100
        526 000010ec
        527 000010f0
        528 000010e0
        529 000010e4
write reg 12 00001400
        530 000010e8
write reg 13 00000200
        531 000010ec
        532 000010f0
        533 000010e0
        534 000010e4
write reg 12 00002800
        535 000010e8
write reg 13 00000400
        536 000010ec
        537 000010f0
        538 000010e0
        539 000010e4
write reg 12 00005000
        540 000010e8
write reg 13 00000800
        541 000010ec
        542 000010f0
        543 000010e0
        544 000010e4
write reg 12 0000a000
        545 000010e8
write reg 13 00001000
        546 000010ec
        547 000010f0
        548 000010e0
        549 000010e4
write reg 12 00014000
        550 000010e8
write reg 13 00002000
        551 000010ec
        552 000010f0
        553 000010e0
        554 000010e4
write reg 12 00028000
        555 000010e8
write reg 13 00004000
        556 000010ec
        557 000010f0
        558 000010e0
        559 000010e4
write reg 12 00050000
        560 000010e8
write reg 13 00008000
        561 000010ec
        562 000010f0
        563 000010e0
        564 000010e4
write reg 12 000a0000
        565 000010e8
write reg 13 00010000
        566 000010ec
        567 000010f0
        568 000010e0
        569 000010e4
write reg 12 00140000
        570 000010e8
write reg 13 00020000
        571 000010ec
        572 000010f0
        573 000010e0
        574 000010e4
write reg 12 00280000
        575 000010e8
write reg 13 00040000
        576 000010ec
        577 000010f0
        578 000010e0
        579 000010e4
write reg 12 00500000
        580 000010e8
write reg 13 00080000
        581 000010ec
        582 000010f0
        583 000010e0
        584 000010e4
write reg 12 00a00000
        585 000010e8
write reg 13 00100000
        586 000010ec
        587 000010f0
        588 000010e0
        589 000010e4
write reg 12 01400000
        590 000010e8
write reg 13 00200000
        591 000010ec
        592 000010f0
        593 000010e0
        594 000010e4
write reg 12 02800000
        595 000010e8
write reg 13 00400000
        596 000010ec
        597 000010f0
        598 000010e0
        599 000010e4
write reg 12 05000000
        600 000010e8
write reg 13 00800000
        601 000010ec
        602 000010f0
        603 000010e0
        604 000010e4
write reg 12 0a000000
        605 000010e8
write reg 13 01000000
        606 000010ec
        607 000010f0
        608 000010e0
        609 000010e4
write reg 12 14000000
        610 000010e8
write reg 13 02000000
        611 000010ec
        612 000010f0
        613 000010e0
        614 000010e4
write reg 12 28000000
        615 000010e8
write reg 13 04000000
        616 000010ec
        617 000010f0
write reg 10 00000000
        618 000010f4
        619 000010f8
        620 00001100
write reg 13 02000000
        621 00001104
write reg 12 14000000
        622 00001108
        623 0000110c
        624 000010f4
        625 000010f8
write reg 11 088cfc00
        626 000010fc
write reg 10 02000000
        627 00001100
write reg 13 01000000
        628 00001104
write reg 12 0a000000
        629 00001108
        630 0000110c
        631 000010f4
        632 000010f8
        633 00001100
write reg 13 00800000
        634 00001104
write reg 12 05000000
        635 00001108
        636 0000110c
        637 000010f4
        638 000010f8
write reg 11 038cfc00
        639 000010fc
write reg 10 02800000
        640 00001100
write reg 13 00400000
        641 00001104
write reg 12 02800000
        642 00001108
        643 0000110c
        644 000010f4
        645 000010f8
write reg 11 010cfc00
        646 000010fc
write reg 10 02c00000
        647 00001100
write reg 13 00200000
        648 00001104
write reg 12 01400000
        649 00001108
        650 0000110c
        651 000010f4
        652 000010f8
        653 00001100
write reg 13 00100000
        654 00001104
write reg 12 00a00000
        655 00001108
        656 0000110c
        657 000010f4
        658 000010f8
write reg 11 006cfc00
        659 000010fc
write reg 10 02d00000
        660 00001100
write reg 13 00080000
        661 00001104
write reg 12 00500000
        662 00001108
        663 0000110c
        664 000010f4
        665 000010f8
write reg 11 001cfc00
        666 000010fc
write reg 10 02d80000
        667 00001100
write reg 13 00040000
        668 00001104
write reg 12 00280000
        669 00001108
        670 0000110c
        671 000010f4
        672 000010f8
        673 00001100
write reg 13 00020000
        674 00001104
write reg 12 00140000
        675 00001108
        676 0000110c
        677 000010f4
        678 000010f8
write reg 11 0008fc00
        679 000010fc
write reg 10 02da0000
        680 00001100
write reg 13 00010000
        681 00001104
write reg 12 000a0000
        682 00001108
        683 0000110c
        684 000010f4
        685 000010f8
        686 00001100
write reg 13 00008000
        687 00001104
write reg 12 00050000
        688 00001108
        689 0000110c
        690 000010f4
        691 000010f8
write reg 11 0003fc00
        692 000010fc
write reg 10 02da8000
        693 00001100
write reg 13 00004000
        694 00001104
write reg 12 00028000
        695 00001108
        696 0000110c
        697 000010f4
        698 000010f8
write reg 11 00017c00
        699 000010fc
write reg 10 02dac000
        700 00001100
write reg 13 00002000
        701 00001104
write reg 12 00014000
        702 00001108
        703 0000110c
        704 000010f4
        705 000010f8
write reg 11 00003c00
        706 000010fc
write reg 10 02dae000
        707 00001100
write reg 13 00001000
        708 00001104
write reg 12 0000a000
        709 00001108
        710 0000110c
        711 000010f4
        712 000010f8
        713 00001100
write reg 13 00000800
        714 00001104
write reg 12 00005000
        715 00001108
        716 0000110c
        717 000010f4
        718 000010f8
        719 00001100
write reg 13 00000400
        720 00001104
write reg 12 00002800
        721 00001108
        722 0000110c
        723 000010f4
        724 000010f8
write reg 11 00001400
        725 000010fc
write reg 10 02dae400
        726 00001100
write reg 13 00000200
        727 00001104
write reg 12 00001400
        728 00001108
        729 0000110c
        730 000010f4
        731 000010f8
write reg 11 00000000
        732 000010fc
write reg 10 02dae600
        733 00001100
write reg 13 00000100
        734 00001104
write reg 12 00000a00
        735 00001108
        736 0000110c
        737 000010f4
        738 000010f8
        739 00001100
write reg 13 00000080
        740 00001104
write reg 12 00000500
        741 00001108
        742 0000110c
        743 000010f4
        744 000010f8
        745 00001100
write reg 13 00000040
        746 00001104
write reg 12 00000280
        747 00001108
        748 0000110c
        749 000010f4
        750 000010f8
        751 00001100
write reg 13 00000020
        752 00001104
write reg 12 00000140
        753 00001108
        754 0000110c
        755 000010f4
        756 000010f8
        757 00001100
write reg 13 00000010
        758 00001104
write reg 12 000000a0
        759 00001108
        760 0000110c
        761 000010f4
        762 000010f8
        763 00001100
write reg 13 00000008
        764 00001104
write reg 12 00000050
        765 00001108
        766 0000110c
        767 000010f4
        768 000010f8
        769 00001100
write reg 13 00000004
        770 00001104
write reg 12 00000028
        771 00001108
        772 0000110c
        773 000010f4
        774 000010f8
        775 00001100
write reg 13 00000002
        776 00001104
write reg 12 00000014
        777 00001108
        778 0000110c
        779 000010f4
        780 000010f8
        781 00001100
write reg 13 00000001
        782 00001104
write reg 12 0000000a
        783 00001108
        784 0000110c
        785 000010f4
        786 000010f8
        787 00001100
write reg 13 00000000
        788 00001104
write reg 12 00000005
        789 00001108
        790 0000110c
        791 00001110
        792 00001068
write reg 15 02dae600
        793 0000106c
119750000 WRITE: 131052   0 1
119770000 WRITE: 131053 230 1
119790000 WRITE: 131054 218 1
        794 00001070
119810000 WRITE: 131055   2 1
        795 00001074
write reg 15 0000000a
write reg 15 00000009
        796 00001078
120370000 WRITE: 131044   9 1
120390000 WRITE: 131045   0 1
120410000 WRITE: 131046   0 1
        797 0000107c
120430000 WRITE: 131047   0 1
        798 00001080
write reg 15 00000009
        799 00001084
        800 0000105c
        801 00001060
write reg 11 00000009
        802 00001064
write reg 10 02dae600
write reg  1 00001068
        803 00001068
        804 000010c0
        805 000010c4
        806 000010c8
write reg 12 00000009
        807 000010cc
write reg 11 02dae600
        808 000010d0
write reg 10 ffffffff
        809 000010d4
        810 000010d8
write reg 13 00000001
        811 000010dc
        812 000010e0
        813 000010e4
write reg 12 00000012
        814 000010e8
write reg 13 00000002
        815 000010ec
        816 000010f0
        817 000010e0
        818 000010e4
write reg 12 00000024
        819 000010e8
write reg 13 00000004
        820 000010ec
        821 000010f0
        822 000010e0
        823 000010e4
write reg 12 00000048
        824 000010e8
write reg 13 00000008
        825 000010ec
        826 000010f0
        827 000010e0
        828 000010e4
write reg 12 00000090
        829 000010e8
write reg 13 00000010
        830 000010ec
        831 000010f0
        832 000010e0
        833 000010e4
write reg 12 00000120
        834 000010e8
write reg 13 00000020
        835 000010ec
        836 000010f0
        837 000010e0
        838 000010e4
write reg 12 00000240
        839 000010e8
write reg 13 00000040
        840 000010ec
        841 000010f0
        842 000010e0
        843 000010e4
write reg 12 00000480
        844 000010e8
write reg 13 00000080
        845 000010ec
        846 000010f0
        847 000010e0
        848 000010e4
write reg 12 00000900
        849 000010e8
write reg 13 00000100
        850 000010ec
        851 000010f0
        852 000010e0
        853 000010e4
write reg 12 00001200
        854 000010e8
write reg 13 00000200
        855 000010ec
        856 000010f0
        857 000010e0
        858 000010e4
write reg 12 00002400
        859 000010e8
write reg 13 00000400
        860 000010ec
        861 000010f0
        862 000010e0
        863 000010e4
write reg 12 00004800
        864 000010e8
write reg 13 00000800
        865 000010ec
        866 000010f0
        867 000010e0
        868 000010e4
write reg 12 00009000
        869 000010e8
write reg 13 00001000
        870 000010ec
        871 000010f0
        872 000010e0
        873 000010e4
write reg 12 00012000
        874 000010e8
write reg 13 00002000
        875 000010ec
        876 000010f0
        877 000010e0
        878 000010e4
write reg 12 00024000
        879 000010e8
write reg 13 00004000
        880 000010ec
        881 000010f0
        882 000010e0
        883 000010e4
write reg 12 00048000
        884 000010e8
write reg 13 00008000
        885 000010ec
        886 000010f0
        887 000010e0
        888 000010e4
write reg 12 00090000
        889 000010e8
write reg 13 00010000
        890 000010ec
        891 000010f0
        892 000010e0
        893 000010e4
write reg 12 00120000
        894 000010e8
write reg 13 00020000
        895 000010ec
        896 000010f0
        897 000010e0
        898 000010e4
write reg 12 00240000
        899 000010e8
write reg 13 00040000
        900 000010ec
        901 000010f0
        902 000010e0
        903 000010e4
write reg 12 00480000
        904 000010e8
write reg 13 00080000
        905 000010ec
        906 000010f0
        907 000010e0
        908 000010e4
write reg 12 00900000
        909 000010e8
write reg 13 00100000
        910 000010ec
        911 000010f0
        912 000010e0
        913 000010e4
write reg 12 01200000
        914 000010e8
write reg 13 00200000
        915 000010ec
        916 000010f0
        917 000010e0
        918 000010e4
write reg 12 02400000
        919 000010e8
write reg 13 00400000
        920 000010ec
        921 000010f0
        922 000010e0
        923 000010e4
write reg 12 04800000
        924 000010e8
write reg 13 00800000
        925 000010ec
        926 000010f0
write reg 10 00000000
        927 000010f4
        928 000010f8
        929 00001100
write reg 13 00400000
        930 00001104
write reg 12 02400000
        931 00001108
        932 0000110c
        933 000010f4
        934 000010f8
write reg 11 009ae600
        935 000010fc
write reg 10 00400000
        936 00001100
write reg 13 00200000
        937 00001104
write reg 12 01200000
        938 00001108
        939 0000110c
        940 000010f4
        941 000010f8
        942 00001100
write reg 13 00100000
        943 00001104
write reg 12 00900000
        944 00001108
        945 0000110c
        946 000010f4
        947 000010f8
write reg 11 000ae600
        948 000010fc
write reg 10 00500000
        949 00001100
write reg 13 00080000
        950 00001104
write reg 12 00480000
        951 00001108
        952 0000110c
        953 000010f4
        954 000010f8
        955 00001100
write reg 13 00040000
        956 00001104
write reg 12 00240000
        957 00001108
        958 0000110c
        959 000010f4
        960 000010f8
        961 00001100
write reg 13 00020000
        962 00001104
write reg 12 00120000
        963 00001108
        964 0000110c
        965 000010f4
        966 000010f8
        967 00001100
write reg 13 00010000
        968 00001104
write reg 12 00090000
        969 00001108
        970 0000110c
        971 000010f4
        972 000010f8
write reg 11 0001e600
        973 000010fc
write reg 10 00510000
        974 00001100
write reg 13 00008000
        975 00001104
write reg 12 00048000
        976 00001108
        977 0000110c
        978 000010f4
        979 000010f8
        980 00001100
write reg 13 00004000
        981 00001104
write reg 12 00024000
        982 00001108
        983 0000110c
        984 000010f4
        985 000010f8
        986 00001100
write reg 13 00002000
        987 00001104
write reg 12 00012000
        988 00001108
        989 0000110c
        990 000010f4
        991 000010f8
write reg 11 0000c600
        992 000010fc
write reg 10 00512000
        993 00001100
write reg 13 00001000
        994 00001104
write reg 12 00009000
        995 00001108
        996 0000110c
        997 000010f4
        998 000010f8
write reg 11 00003600
        999 000010fc
write reg 10 00513000
       1000 00001100
write reg 13 00000800
       1001 00001104
write reg 12 00004800
       1002 00001108
       1003 0000110c
       1004 000010f4
       1005 000010f8
       1006 00001100
write reg 13 00000400
       1007 00001104
write reg 12 00002400
       1008 00001108
       1009 0000110c
       1010 000010f4
       1011 000010f8
write reg 11 00001200
       1012 000010fc
write reg 10 00513400
       1013 00001100
write reg 13 00000200
       1014 00001104
write reg 12 00001200
       1015 00001108
       1016 0000110c
       1017 000010f4
       1018 000010f8
write reg 11 00000000
       1019 000010fc
write reg 10 00513600
       1020 00001100
write reg 13 00000100
       1021 00001104
write reg 12 00000900
       1022 00001108
       1023 0000110c
       1024 000010f4
       1025 000010f8
       1026 00001100
write reg 13 00000080
       1027 00001104
write reg 12 00000480
       1028 00001108
       1029 0000110c
       1030 000010f4
       1031 000010f8
       1032 00001100
write reg 13 00000040
       1033 00001104
write reg 12 00000240
       1034 00001108
       1035 0000110c
       1036 000010f4
       1037 000010f8
       1038 00001100
write reg 13 00000020
       1039 00001104
write reg 12 00000120
       1040 00001108
       1041 0000110c
       1042 000010f4
       1043 000010f8
       1044 00001100
write reg 13 00000010
       1045 00001104
write reg 12 00000090
       1046 00001108
       1047 0000110c
       1048 000010f4
       1049 000010f8
       1050 00001100
write reg 13 00000008
       1051 00001104
write reg 12 00000048
       1052 00001108
       1053 0000110c
       1054 000010f4
       1055 000010f8
       1056 00001100
write reg 13 00000004
       1057 00001104
write reg 12 00000024
       1058 00001108
       1059 0000110c
       1060 000010f4
       1061 000010f8
       1062 00001100
write reg 13 00000002
       1063 00001104
write reg 12 00000012
       1064 00001108
       1065 0000110c
       1066 000010f4
       1067 000010f8
       1068 00001100
write reg 13 00000001
       1069 00001104
write reg 12 00000009
       1070 00001108
       1071 0000110c
       1072 000010f4
       1073 000010f8
       1074 00001100
write reg 13 00000000
       1075 00001104
write reg 12 00000004
       1076 00001108
       1077 0000110c
       1078 00001110
       1079 00001068
write reg 15 00513600
       1080 0000106c
160570000 WRITE: 131052   0 1
160590000 WRITE: 131053  54 1
160610000 WRITE: 131054  81 1
       1081 00001070
160630000 WRITE: 131055   0 1
       1082 00001074
write reg 15 00000009
write reg 15 00000008
       1083 00001078
161190000 WRITE: 131044   8 1
161210000 WRITE: 131045   0 1
161230000 WRITE: 131046   0 1
       1084 0000107c
161250000 WRITE: 131047   0 1
       1085 00001080
write reg 15 00000008
       1086 00001084
       1087 0000105c
       1088 00001060
write reg 11 00000008
       1089 00001064
write reg 10 00513600
write reg  1 00001068
       1090 00001068
       1091 000010c0
       1092 000010c4
       1093 000010c8
write reg 12 00000008
       1094 000010cc
write reg 11 00513600
       1095 000010d0
write reg 10 ffffffff
       1096 000010d4
       1097 000010d8
write reg 13 00000001
       1098 000010dc
       1099 000010e0
       1100 000010e4
write reg 12 00000010
       1101 000010e8
write reg 13 00000002
       1102 000010ec
       1103 000010f0
       1104 000010e0
       1105 000010e4
write reg 12 00000020
       1106 000010e8
write reg 13 00000004
       1107 000010ec
       1108 000010f0
       1109 000010e0
       1110 000010e4
write reg 12 00000040
       1111 000010e8
write reg 13 00000008
       1112 000010ec
       1113 000010f0
       1114 000010e0
       1115 000010e4
write reg 12 00000080
       1116 000010e8
write reg 13 00000010
       1117 000010ec
       1118 000010f0
       1119 000010e0
       1120 000010e4
write reg 12 00000100
       1121 000010e8
write reg 13 00000020
       1122 000010ec
       1123 000010f0
       1124 000010e0
       1125 000010e4
write reg 12 00000200
       1126 000010e8
write reg 13 00000040
       1127 000010ec
       1128 000010f0
       1129 000010e0
       1130 000010e4
write reg 12 00000400
       1131 000010e8
write reg 13 00000080
       1132 000010ec
       1133 000010f0
       1134 000010e0
       1135 000010e4
write reg 12 00000800
       1136 000010e8
write reg 13 00000100
       1137 000010ec
       1138 000010f0
       1139 000010e0
       1140 000010e4
write reg 12 00001000
       1141 000010e8
write reg 13 00000200
       1142 000010ec
       1143 000010f0
       1144 000010e0
       1145 000010e4
write reg 12 00002000
       1146 000010e8
write reg 13 00000400
       1147 000010ec
       1148 000010f0
       1149 000010e0
       1150 000010e4
write reg 12 00004000
       1151 000010e8
write reg 13 00000800
       1152 000010ec
       1153 000010f0
       1154 000010e0
       1155 000010e4
write reg 12 00008000
       1156 000010e8
write reg 13 00001000
       1157 000010ec
       1158 000010f0
       1159 000010e0
       1160 000010e4
write reg 12 00010000
       1161 000010e8
write reg 13 00002000
       1162 000010ec
       1163 000010f0
       1164 000010e0
       1165 000010e4
write reg 12 00020000
       1166 000010e8
write reg 13 00004000
       1167 000010ec
       1168 000010f0
       1169 000010e0
       1170 000010e4
write reg 12 00040000
       1171 000010e8
write reg 13 00008000
       1172 000010ec
       1173 000010f0
       1174 000010e0
       1175 000010e4
write reg 12 00080000
       1176 000010e8
write reg 13 00010000
       1177 000010ec
       1178 000010f0
       1179 000010e0
       1180 000010e4
write reg 12 00100000
       1181 000010e8
write reg 13 00020000
       1182 000010ec
       1183 000010f0
       1184 000010e0
       1185 000010e4
write reg 12 00200000
       1186 000010e8
write reg 13 00040000
       1187 000010ec
       1188 000010f0
       1189 000010e0
       1190 000010e4
write reg 12 00400000
       1191 000010e8
write reg 13 00080000
       1192 000010ec
       1193 000010f0
       1194 000010e0
       1195 000010e4
write reg 12 00800000
       1196 000010e8
write reg 13 00100000
       1197 000010ec
       1198 000010f0
write reg 10 00000000
       1199 000010f4
       1200 000010f8
       1201 00001100
write reg 13 00080000
       1202 00001104
write reg 12 00400000
       1203 00001108
       1204 0000110c
       1205 000010f4
       1206 000010f8
write reg 11 00113600
       1207 000010fc
write reg 10 00080000
       1208 00001100
write reg 13 00040000
       1209 00001104
write reg 12 00200000
       1210 00001108
       1211 0000110c
       1212 000010f4
       1213 000010f8
       1214 00001100
write reg 13 00020000
       1215 00001104
write reg 12 00100000
       1216 00001108
       1217 0000110c
       1218 000010f4
       1219 000010f8
write reg 11 00013600
       1220 000010fc
write reg 10 000a0000
       1221 00001100
write reg 13 00010000
       1222 00001104
write reg 12 00080000
       1223 00001108
       1224 0000110c
       1225 000010f4
       1226 000010f8
       1227 00001100
write reg 13 00008000
       1228 00001104
write reg 12 00040000
       1229 00001108
       1230 0000110c
       1231 000010f4
       1232 000010f8
       1233 00001100
write reg 13 00004000
       1234 00001104
write reg 12 00020000
       1235 00001108
       1236 0000110c
       1237 000010f4
       1238 000010f8
       1239 00001100
write reg 13 00002000
       1240 00001104
write reg 12 00010000
       1241 00001108
       1242 0000110c
       1243 000010f4
       1244 000010f8
write reg 11 00003600
       1245 000010fc
write reg 10 000a2000
       1246 00001100
write reg 13 00001000
       1247 00001104
write reg 12 00008000
       1248 00001108
       1249 0000110c
       1250 000010f4
       1251 000010f8
       1252 00001100
write reg 13 00000800
       1253 00001104
write reg 12 00004000
       1254 00001108
       1255 0000110c
       1256 000010f4
       1257 000010f8
       1258 00001100
write reg 13 00000400
       1259 00001104
write reg 12 00002000
       1260 00001108
       1261 0000110c
       1262 000010f4
       1263 000010f8
write reg 11 00001600
       1264 000010fc
write reg 10 000a2400
       1265 00001100
write reg 13 00000200
       1266 00001104
write reg 12 00001000
       1267 00001108
       1268 0000110c
       1269 000010f4
       1270 000010f8
write reg 11 00000600
       1271 000010fc
write reg 10 000a2600
       1272 00001100
write reg 13 00000100
       1273 00001104
write reg 12 00000800
       1274 00001108
       1275 0000110c
       1276 000010f4
       1277 000010f8
       1278 00001100
write reg 13 00000080
       1279 00001104
write reg 12 00000400
       1280 00001108
       1281 0000110c
       1282 000010f4
       1283 000010f8
write reg 11 00000200
       1284 000010fc
write reg 10 000a2680
       1285 00001100
write reg 13 00000040
       1286 00001104
write reg 12 00000200
       1287 00001108
       1288 0000110c
       1289 000010f4
       1290 000010f8
write reg 11 00000000
       1291 000010fc
write reg 10 000a26c0
       1292 00001100
write reg 13 00000020
       1293 00001104
write reg 12 00000100
       1294 00001108
       1295 0000110c
       1296 000010f4
       1297 000010f8
       1298 00001100
write reg 13 00000010
       1299 00001104
write reg 12 00000080
       1300 00001108
       1301 0000110c
       1302 000010f4
       1303 000010f8
       1304 00001100
write reg 13 00000008
       1305 00001104
write reg 12 00000040
       1306 00001108
       1307 0000110c
       1308 000010f4
       1309 000010f8
       1310 00001100
write reg 13 00000004
       1311 00001104
write reg 12 00000020
       1312 00001108
       1313 0000110c
       1314 000010f4
       1315 000010f8
       1316 00001100
write reg 13 00000002
       1317 00001104
write reg 12 00000010
       1318 00001108
       1319 0000110c
       1320 000010f4
       1321 000010f8
       1322 00001100
write reg 13 00000001
       1323 00001104
write reg 12 00000008
       1324 00001108
       1325 0000110c
       1326 000010f4
       1327 000010f8
       1328 00001100
write reg 13 00000000
       1329 00001104
write reg 12 00000004
       1330 00001108
       1331 0000110c
       1332 00001110
       1333 00001068
write reg 15 000a26c0
       1334 0000106c
196770000 WRITE: 131052 192 1
196790000 WRITE: 131053  38 1
196810000 WRITE: 131054  10 1
       1335 00001070
196830000 WRITE: 131055   0 1
       1336 00001074
write reg 15 00000008
write reg 15 00000007
       1337 00001078
197390000 WRITE: 131044   7 1
197410000 WRITE: 131045   0 1
197430000 WRITE: 131046   0 1
       1338 0000107c
197450000 WRITE: 131047   0 1
       1339 00001080
write reg 15 00000007
       1340 00001084
       1341 0000105c
       1342 00001060
write reg 11 00000007
       1343 00001064
write reg 10 000a26c0
write reg  1 00001068
       1344 00001068
       1345 000010c0
       1346 000010c4
       1347 000010c8
write reg 12 00000007
       1348 000010cc
write reg 11 000a26c0
       1349 000010d0
write reg 10 ffffffff
       1350 000010d4
       1351 000010d8
write reg 13 00000001
       1352 000010dc
       1353 000010e0
       1354 000010e4
write reg 12 0000000e
       1355 000010e8
write reg 13 00000002
       1356 000010ec
       1357 000010f0
       1358 000010e0
       1359 000010e4
write reg 12 0000001c
       1360 000010e8
write reg 13 00000004
       1361 000010ec
       1362 000010f0
       1363 000010e0
       1364 000010e4
write reg 12 00000038
       1365 000010e8
write reg 13 00000008
       1366 000010ec
       1367 000010f0
       1368 000010e0
       1369 000010e4
write reg 12 00000070
       1370 000010e8
write reg 13 00000010
       1371 000010ec
       1372 000010f0
       1373 000010e0
       1374 000010e4
write reg 12 000000e0
       1375 000010e8
write reg 13 00000020
       1376 000010ec
       1377 000010f0
       1378 000010e0
       1379 000010e4
write reg 12 000001c0
       1380 000010e8
write reg 13 00000040
       1381 000010ec
       1382 000010f0
       1383 000010e0
       1384 000010e4
write reg 12 00000380
       1385 000010e8
write reg 13 00000080
       1386 000010ec
       1387 000010f0
       1388 000010e0
       1389 000010e4
write reg 12 00000700
       1390 000010e8
write reg 13 00000100
       1391 000010ec
       1392 000010f0
       1393 000010e0
       1394 000010e4
write reg 12 00000e00
       1395 000010e8
write reg 13 00000200
       1396 000010ec
       1397 000010f0
       1398 000010e0
       1399 000010e4
write reg 12 00001c00
       1400 000010e8
write reg 13 00000400
       1401 000010ec
       1402 000010f0
       1403 000010e0
       1404 000010e4
write reg 12 00003800
       1405 000010e8
write reg 13 00000800
       1406 000010ec
       1407 000010f0
       1408 000010e0
       1409 000010e4
write reg 12 00007000
       1410 000010e8
write reg 13 00001000
       1411 000010ec
       1412 000010f0
       1413 000010e0
       1414 000010e4
write reg 12 0000e000
       1415 000010e8
write reg 13 00002000
       1416 000010ec
       1417 000010f0
       1418 000010e0
       1419 000010e4
write reg 12 0001c000
       1420 000010e8
write reg 13 00004000
       1421 000010ec
       1422 000010f0
       1423 000010e0
       1424 000010e4
write reg 12 00038000
       1425 000010e8
write reg 13 00008000
       1426 000010ec
       1427 000010f0
       1428 000010e0
       1429 000010e4
write reg 12 00070000
       1430 000010e8
write reg 13 00010000
       1431 000010ec
       1432 000010f0
       1433 000010e0
       1434 000010e4
write reg 12 000e0000
       1435 000010e8
write reg 13 00020000
       1436 000010ec
       1437 000010f0
write reg 10 00000000
       1438 000010f4
       1439 000010f8
       1440 00001100
write reg 13 00010000
       1441 00001104
write reg 12 00070000
       1442 00001108
       1443 0000110c
       1444 000010f4
       1445 000010f8
write reg 11 000326c0
       1446 000010fc
write reg 10 00010000
       1447 00001100
write reg 13 00008000
       1448 00001104
write reg 12 00038000
       1449 00001108
       1450 0000110c
       1451 000010f4
       1452 000010f8
       1453 00001100
write reg 13 00004000
       1454 00001104
write reg 12 0001c000
       1455 00001108
       1456 0000110c
       1457 000010f4
       1458 000010f8
write reg 11 000166c0
       1459 000010fc
write reg 10 00014000
       1460 00001100
write reg 13 00002000
       1461 00001104
write reg 12 0000e000
       1462 00001108
       1463 0000110c
       1464 000010f4
       1465 000010f8
write reg 11 000086c0
       1466 000010fc
write reg 10 00016000
       1467 00001100
write reg 13 00001000
       1468 00001104
write reg 12 00007000
       1469 00001108
       1470 0000110c
       1471 000010f4
       1472 000010f8
write reg 11 000016c0
       1473 000010fc
write reg 10 00017000
       1474 00001100
write reg 13 00000800
       1475 00001104
write reg 12 00003800
       1476 00001108
       1477 0000110c
       1478 000010f4
       1479 000010f8
       1480 00001100
write reg 13 00000400
       1481 00001104
write reg 12 00001c00
       1482 00001108
       1483 0000110c
       1484 000010f4
       1485 000010f8
       1486 00001100
write reg 13 00000200
       1487 00001104
write reg 12 00000e00
       1488 00001108
       1489 0000110c
       1490 000010f4
       1491 000010f8
write reg 11 000008c0
       1492 000010fc
write reg 10 00017200
       1493 00001100
write reg 13 00000100
       1494 00001104
write reg 12 00000700
       1495 00001108
       1496 0000110c
       1497 000010f4
       1498 000010f8
write reg 11 000001c0
       1499 000010fc
write reg 10 00017300
       1500 00001100
write reg 13 00000080
       1501 00001104
write reg 12 00000380
       1502 00001108
       1503 0000110c
       1504 000010f4
       1505 000010f8
       1506 00001100
write reg 13 00000040
       1507 00001104
write reg 12 000001c0
       1508 00001108
       1509 0000110c
       1510 000010f4
       1511 000010f8
write reg 11 00000000
       1512 000010fc
write reg 10 00017340
       1513 00001100
write reg 13 00000020
       1514 00001104
write reg 12 000000e0
       1515 00001108
       1516 0000110c
       1517 000010f4
       1518 000010f8
       1519 00001100
write reg 13 00000010
       1520 00001104
write reg 12 00000070
       1521 00001108
       1522 0000110c
       1523 000010f4
       1524 000010f8
       1525 00001100
write reg 13 00000008
       1526 00001104
write reg 12 00000038
       1527 00001108
       1528 0000110c
       1529 000010f4
       1530 000010f8
       1531 00001100
write reg 13 00000004
       1532 00001104
write reg 12 0000001c
       1533 00001108
       1534 0000110c
       1535 000010f4
       1536 000010f8
       1537 00001100
write reg 13 00000002
       1538 00001104
write reg 12 0000000e
       1539 00001108
       1540 0000110c
       1541 000010f4
       1542 000010f8
       1543 00001100
write reg 13 00000001
       1544 00001104
write reg 12 00000007
       1545 00001108
       1546 0000110c
       1547 000010f4
       1548 000010f8
       1549 00001100
write reg 13 00000000
       1550 00001104
write reg 12 00000003
       1551 00001108
       1552 0000110c
       1553 00001110
       1554 00001068
write reg 15 00017340
       1555 0000106c
228350000 WRITE: 131052  64 1
228370000 WRITE: 131053 115 1
228390000 WRITE: 131054   1 1
       1556 00001070
228410000 WRITE: 131055   0 1
       1557 00001074
write reg 15 00000007
write reg 15 00000006
       1558 00001078
228970000 WRITE: 131044   6 1
228990000 WRITE: 131045   0 1
229010000 WRITE: 131046   0 1
       1559 0000107c
229030000 WRITE: 131047   0 1
       1560 00001080
write reg 15 00000006
       1561 00001084
       1562 0000105c
       1563 00001060
write reg 11 00000006
       1564 00001064
write reg 10 00017340
write reg  1 00001068
       1565 00001068
       1566 000010c0
       1567 000010c4
       1568 000010c8
write reg 12 00000006
       1569 000010cc
write reg 11 00017340
       1570 000010d0
write reg 10 ffffffff
       1571 000010d4
       1572 000010d8
write reg 13 00000001
       1573 000010dc
       1574 000010e0
       1575 000010e4
write reg 12 0000000c
       1576 000010e8
write reg 13 00000002
       1577 000010ec
       1578 000010f0
       1579 000010e0
       1580 000010e4
write reg 12 00000018
       1581 000010e8
write reg 13 00000004
       1582 000010ec
       1583 000010f0
       1584 000010e0
       1585 000010e4
write reg 12 00000030
       1586 000010e8
write reg 13 00000008
       1587 000010ec
       1588 000010f0
       1589 000010e0
       1590 000010e4
write reg 12 00000060
       1591 000010e8
write reg 13 00000010
       1592 000010ec
       1593 000010f0
       1594 000010e0
       1595 000010e4
write reg 12 000000c0
       1596 000010e8
write reg 13 00000020
       1597 000010ec
       1598 000010f0
       1599 000010e0
       1600 000010e4
write reg 12 00000180
       1601 000010e8
write reg 13 00000040
       1602 000010ec
       1603 000010f0
       1604 000010e0
       1605 000010e4
write reg 12 00000300
       1606 000010e8
write reg 13 00000080
       1607 000010ec
       1608 000010f0
       1609 000010e0
       1610 000010e4
write reg 12 00000600
       1611 000010e8
write reg 13 00000100
       1612 000010ec
       1613 000010f0
       1614 000010e0
       1615 000010e4
write reg 12 00000c00
       1616 000010e8
write reg 13 00000200
       1617 000010ec
       1618 000010f0
       1619 000010e0
       1620 000010e4
write reg 12 00001800
       1621 000010e8
write reg 13 00000400
       1622 000010ec
       1623 000010f0
       1624 000010e0
       1625 000010e4
write reg 12 00003000
       1626 000010e8
write reg 13 00000800
       1627 000010ec
       1628 000010f0
       1629 000010e0
       1630 000010e4
write reg 12 00006000
       1631 000010e8
write reg 13 00001000
       1632 000010ec
       1633 000010f0
       1634 000010e0
       1635 000010e4
write reg 12 0000c000
       1636 000010e8
write reg 13 00002000
       1637 000010ec
       1638 000010f0
       1639 000010e0
       1640 000010e4
write reg 12 00018000
       1641 000010e8
write reg 13 00004000
       1642 000010ec
       1643 000010f0
write reg 10 00000000
       1644 000010f4
       1645 000010f8
       1646 00001100
write reg 13 00002000
       1647 00001104
write reg 12 0000c000
       1648 00001108
       1649 0000110c
       1650 000010f4
       1651 000010f8
write reg 11 0000b340
       1652 000010fc
write reg 10 00002000
       1653 00001100
write reg 13 00001000
       1654 00001104
write reg 12 00006000
       1655 00001108
       1656 0000110c
       1657 000010f4
       1658 000010f8
write reg 11 00005340
       1659 000010fc
write reg 10 00003000
       1660 00001100
write reg 13 00000800
       1661 00001104
write reg 12 00003000
       1662 00001108
       1663 0000110c
       1664 000010f4
       1665 000010f8
write reg 11 00002340
       1666 000010fc
write reg 10 00003800
       1667 00001100
write reg 13 00000400
       1668 00001104
write reg 12 00001800
       1669 00001108
       1670 0000110c
       1671 000010f4
       1672 000010f8
write reg 11 00000b40
       1673 000010fc
write reg 10 00003c00
       1674 00001100
write reg 13 00000200
       1675 00001104
write reg 12 00000c00
       1676 00001108
       1677 0000110c
       1678 000010f4
       1679 000010f8
       1680 00001100
write reg 13 00000100
       1681 00001104
write reg 12 00000600
       1682 00001108
       1683 0000110c
       1684 000010f4
       1685 000010f8
write reg 11 00000540
       1686 000010fc
write reg 10 00003d00
       1687 00001100
write reg 13 00000080
       1688 00001104
write reg 12 00000300
       1689 00001108
       1690 0000110c
       1691 000010f4
       1692 000010f8
write reg 11 00000240
       1693 000010fc
write reg 10 00003d80
       1694 00001100
write reg 13 00000040
       1695 00001104
write reg 12 00000180
       1696 00001108
       1697 0000110c
       1698 000010f4
       1699 000010f8
write reg 11 000000c0
       1700 000010fc
write reg 10 00003dc0
       1701 00001100
write reg 13 00000020
       1702 00001104
write reg 12 000000c0
       1703 00001108
       1704 0000110c
       1705 000010f4
       1706 000010f8
write reg 11 00000000
       1707 000010fc
write reg 10 00003de0
       1708 00001100
write reg 13 00000010
       1709 00001104
write reg 12 00000060
       1710 00001108
       1711 0000110c
       1712 000010f4
       1713 000010f8
       1714 00001100
write reg 13 00000008
       1715 00001104
write reg 12 00000030
       1716 00001108
       1717 0000110c
       1718 000010f4
       1719 000010f8
       1720 00001100
write reg 13 00000004
       1721 00001104
write reg 12 00000018
       1722 00001108
       1723 0000110c
       1724 000010f4
       1725 000010f8
       1726 00001100
write reg 13 00000002
       1727 00001104
write reg 12 0000000c
       1728 00001108
       1729 0000110c
       1730 000010f4
       1731 000010f8
       1732 00001100
write reg 13 00000001
       1733 00001104
write reg 12 00000006
       1734 00001108
       1735 0000110c
       1736 000010f4
       1737 000010f8
       1738 00001100
write reg 13 00000000
       1739 00001104
write reg 12 00000003
       1740 00001108
       1741 0000110c
       1742 00001110
       1743 00001068
write reg 15 00003de0
       1744 0000106c
255450000 WRITE: 131052 224 1
255470000 WRITE: 131053  61 1
255490000 WRITE: 131054   0 1
       1745 00001070
255510000 WRITE: 131055   0 1
       1746 00001074
write reg 15 00000006
write reg 15 00000005
       1747 00001078
256070000 WRITE: 131044   5 1
256090000 WRITE: 131045   0 1
256110000 WRITE: 131046   0 1
       1748 0000107c
256130000 WRITE: 131047   0 1
       1749 00001080
write reg 15 00000005
       1750 00001084
       1751 0000105c
       1752 00001060
write reg 11 00000005
       1753 00001064
write reg 10 00003de0
write reg  1 00001068
       1754 00001068
       1755 000010c0
       1756 000010c4
       1757 000010c8
write reg 12 00000005
       1758 000010cc
write reg 11 00003de0
       1759 000010d0
write reg 10 ffffffff
       1760 000010d4
       1761 000010d8
write reg 13 00000001
       1762 000010dc
       1763 000010e0
       1764 000010e4
write reg 12 0000000a
       1765 000010e8
write reg 13 00000002
       1766 000010ec
       1767 000010f0
       1768 000010e0
       1769 000010e4
write reg 12 00000014
       1770 000010e8
write reg 13 00000004
       1771 000010ec
       1772 000010f0
       1773 000010e0
       1774 000010e4
write reg 12 00000028
       1775 000010e8
write reg 13 00000008
       1776 000010ec
       1777 000010f0
       1778 000010e0
       1779 000010e4
write reg 12 00000050
       1780 000010e8
write reg 13 00000010
       1781 000010ec
       1782 000010f0
       1783 000010e0
       1784 000010e4
write reg 12 000000a0
       1785 000010e8
write reg 13 00000020
       1786 000010ec
       1787 000010f0
       1788 000010e0
       1789 000010e4
write reg 12 00000140
       1790 000010e8
write reg 13 00000040
       1791 000010ec
       1792 000010f0
       1793 000010e0
       1794 000010e4
write reg 12 00000280
       1795 000010e8
write reg 13 00000080
       1796 000010ec
       1797 000010f0
       1798 000010e0
       1799 000010e4
write reg 12 00000500
       1800 000010e8
write reg 13 00000100
       1801 000010ec
       1802 000010f0
       1803 000010e0
       1804 000010e4
write reg 12 00000a00
       1805 000010e8
write reg 13 00000200
       1806 000010ec
       1807 000010f0
       1808 000010e0
       1809 000010e4
write reg 12 00001400
       1810 000010e8
write reg 13 00000400
       1811 000010ec
       1812 000010f0
       1813 000010e0
       1814 000010e4
write reg 12 00002800
       1815 000010e8
write reg 13 00000800
       1816 000010ec
       1817 000010f0
       1818 000010e0
       1819 000010e4
write reg 12 00005000
       1820 000010e8
write reg 13 00001000
       1821 000010ec
       1822 000010f0
write reg 10 00000000
       1823 000010f4
       1824 000010f8
       1825 00001100
write reg 13 00000800
       1826 00001104
write reg 12 00002800
       1827 00001108
       1828 0000110c
       1829 000010f4
       1830 000010f8
write reg 11 000015e0
       1831 000010fc
write reg 10 00000800
       1832 00001100
write reg 13 00000400
       1833 00001104
write reg 12 00001400
       1834 00001108
       1835 0000110c
       1836 000010f4
       1837 000010f8
write reg 11 000001e0
       1838 000010fc
write reg 10 00000c00
       1839 00001100
write reg 13 00000200
       1840 00001104
write reg 12 00000a00
       1841 00001108
       1842 0000110c
       1843 000010f4
       1844 000010f8
       1845 00001100
write reg 13 00000100
       1846 00001104
write reg 12 00000500
       1847 00001108
       1848 0000110c
       1849 000010f4
       1850 000010f8
       1851 00001100
write reg 13 00000080
       1852 00001104
write reg 12 00000280
       1853 00001108
       1854 0000110c
       1855 000010f4
       1856 000010f8
       1857 00001100
write reg 13 00000040
       1858 00001104
write reg 12 00000140
       1859 00001108
       1860 0000110c
       1861 000010f4
       1862 000010f8
write reg 11 000000a0
       1863 000010fc
write reg 10 00000c40
       1864 00001100
write reg 13 00000020
       1865 00001104
write reg 12 000000a0
       1866 00001108
       1867 0000110c
       1868 000010f4
       1869 000010f8
write reg 11 00000000
       1870 000010fc
write reg 10 00000c60
       1871 00001100
write reg 13 00000010
       1872 00001104
write reg 12 00000050
       1873 00001108
       1874 0000110c
       1875 000010f4
       1876 000010f8
       1877 00001100
write reg 13 00000008
       1878 00001104
write reg 12 00000028
       1879 00001108
       1880 0000110c
       1881 000010f4
       1882 000010f8
       1883 00001100
write reg 13 00000004
       1884 00001104
write reg 12 00000014
       1885 00001108
       1886 0000110c
       1887 000010f4
       1888 000010f8
       1889 00001100
write reg 13 00000002
       1890 00001104
write reg 12 0000000a
       1891 00001108
       1892 0000110c
       1893 000010f4
       1894 000010f8
       1895 00001100
write reg 13 00000001
       1896 00001104
write reg 12 00000005
       1897 00001108
       1898 0000110c
       1899 000010f4
       1900 000010f8
       1901 00001100
write reg 13 00000000
       1902 00001104
write reg 12 00000002
       1903 00001108
       1904 0000110c
       1905 00001110
       1906 00001068
write reg 15 00000c60
       1907 0000106c
278910000 WRITE: 131052  96 1
278930000 WRITE: 131053  12 1
278950000 WRITE: 131054   0 1
       1908 00001070
278970000 WRITE: 131055   0 1
       1909 00001074
write reg 15 00000005
write reg 15 00000004
       1910 00001078
279530000 WRITE: 131044   4 1
279550000 WRITE: 131045   0 1
279570000 WRITE: 131046   0 1
       1911 0000107c
279590000 WRITE: 131047   0 1
       1912 00001080
write reg 15 00000004
       1913 00001084
       1914 0000105c
       1915 00001060
write reg 11 00000004
       1916 00001064
write reg 10 00000c60
write reg  1 00001068
       1917 00001068
       1918 000010c0
       1919 000010c4
       1920 000010c8
write reg 12 00000004
       1921 000010cc
write reg 11 00000c60
       1922 000010d0
write reg 10 ffffffff
       1923 000010d4
       1924 000010d8
write reg 13 00000001
       1925 000010dc
       1926 000010e0
       1927 000010e4
write reg 12 00000008
       1928 000010e8
write reg 13 00000002
       1929 000010ec
       1930 000010f0
       1931 000010e0
       1932 000010e4
write reg 12 00000010
       1933 000010e8
write reg 13 00000004
       1934 000010ec
       1935 000010f0
       1936 000010e0
       1937 000010e4
write reg 12 00000020
       1938 000010e8
write reg 13 00000008
       1939 000010ec
       1940 000010f0
       1941 000010e0
       1942 000010e4
write reg 12 00000040
       1943 000010e8
write reg 13 00000010
       1944 000010ec
       1945 000010f0
       1946 000010e0
       1947 000010e4
write reg 12 00000080
       1948 000010e8
write reg 13 00000020
       1949 000010ec
       1950 000010f0
       1951 000010e0
       1952 000010e4
write reg 12 00000100
       1953 000010e8
write reg 13 00000040
       1954 000010ec
       1955 000010f0
       1956 000010e0
       1957 000010e4
write reg 12 00000200
       1958 000010e8
write reg 13 00000080
       1959 000010ec
       1960 000010f0
       1961 000010e0
       1962 000010e4
write reg 12 00000400
       1963 000010e8
write reg 13 00000100
       1964 000010ec
       1965 000010f0
       1966 000010e0
       1967 000010e4
write reg 12 00000800
       1968 000010e8
write reg 13 00000200
       1969 000010ec
       1970 000010f0
       1971 000010e0
       1972 000010e4
write reg 12 00001000
       1973 000010e8
write reg 13 00000400
       1974 000010ec
       1975 000010f0
write reg 10 00000000
       1976 000010f4
       1977 000010f8
       1978 00001100
write reg 13 00000200
       1979 00001104
write reg 12 00000800
       1980 00001108
       1981 0000110c
       1982 000010f4
       1983 000010f8
write reg 11 00000460
       1984 000010fc
write reg 10 00000200
       1985 00001100
write reg 13 00000100
       1986 00001104
write reg 12 00000400
       1987 00001108
       1988 0000110c
       1989 000010f4
       1990 000010f8
write reg 11 00000060
       1991 000010fc
write reg 10 00000300
       1992 00001100
write reg 13 00000080
       1993 00001104
write reg 12 00000200
       1994 00001108
       1995 0000110c
       1996 000010f4
       1997 000010f8
       1998 00001100
write reg 13 00000040
       1999 00001104
write reg 12 00000100
       2000 00001108
       2001 0000110c
       2002 000010f4
       2003 000010f8
       2004 00001100
write reg 13 00000020
       2005 00001104
write reg 12 00000080
       2006 00001108
       2007 0000110c
       2008 000010f4
       2009 000010f8
       2010 00001100
write reg 13 00000010
       2011 00001104
write reg 12 00000040
       2012 00001108
       2013 0000110c
       2014 000010f4
       2015 000010f8
write reg 11 00000020
       2016 000010fc
write reg 10 00000310
       2017 00001100
write reg 13 00000008
       2018 00001104
write reg 12 00000020
       2019 00001108
       2020 0000110c
       2021 000010f4
       2022 000010f8
write reg 11 00000000
       2023 000010fc
write reg 10 00000318
       2024 00001100
write reg 13 00000004
       2025 00001104
write reg 12 00000010
       2026 00001108
       2027 0000110c
       2028 000010f4
       2029 000010f8
       2030 00001100
write reg 13 00000002
       2031 00001104
write reg 12 00000008
       2032 00001108
       2033 0000110c
       2034 000010f4
       2035 000010f8
       2036 00001100
write reg 13 00000001
       2037 00001104
write reg 12 00000004
       2038 00001108
       2039 0000110c
       2040 000010f4
       2041 000010f8
       2042 00001100
write reg 13 00000000
       2043 00001104
write reg 12 00000002
       2044 00001108
       2045 0000110c
       2046 00001110
       2047 00001068
write reg 15 00000318
       2048 0000106c
299290000 WRITE: 131052  24 1
299310000 WRITE: 131053   3 1
299330000 WRITE: 131054   0 1
       2049 00001070
299350000 WRITE: 131055   0 1
       2050 00001074
write reg 15 00000004
write reg 15 00000003
       2051 00001078
299910000 WRITE: 131044   3 1
299930000 WRITE: 131045   0 1
299950000 WRITE: 131046   0 1
       2052 0000107c
299970000 WRITE: 131047   0 1
       2053 00001080
write reg 15 00000003
       2054 00001084
       2055 0000105c
       2056 00001060
write reg 11 00000003
       2057 00001064
write reg 10 00000318
write reg  1 00001068
       2058 00001068
       2059 000010c0
       2060 000010c4
       2061 000010c8
write reg 12 00000003
       2062 000010cc
write reg 11 00000318
       2063 000010d0
write reg 10 ffffffff
       2064 000010d4
       2065 000010d8
write reg 13 00000001
       2066 000010dc
       2067 000010e0
       2068 000010e4
write reg 12 00000006
       2069 000010e8
write reg 13 00000002
       2070 000010ec
       2071 000010f0
       2072 000010e0
       2073 000010e4
write reg 12 0000000c
       2074 000010e8
write reg 13 00000004
       2075 000010ec
       2076 000010f0
       2077 000010e0
       2078 000010e4
write reg 12 00000018
       2079 000010e8
write reg 13 00000008
       2080 000010ec
       2081 000010f0
       2082 000010e0
       2083 000010e4
write reg 12 00000030
       2084 000010e8
write reg 13 00000010
       2085 000010ec
       2086 000010f0
       2087 000010e0
       2088 000010e4
write reg 12 00000060
       2089 000010e8
write reg 13 00000020
       2090 000010ec
       2091 000010f0
       2092 000010e0
       2093 000010e4
write reg 12 000000c0
       2094 000010e8
write reg 13 00000040
       2095 000010ec
       2096 000010f0
       2097 000010e0
       2098 000010e4
write reg 12 00000180
       2099 000010e8
write reg 13 00000080
       2100 000010ec
       2101 000010f0
       2102 000010e0
       2103 000010e4
write reg 12 00000300
       2104 000010e8
write reg 13 00000100
       2105 000010ec
       2106 000010f0
       2107 000010e0
       2108 000010e4
write reg 12 00000600
       2109 000010e8
write reg 13 00000200
       2110 000010ec
       2111 000010f0
write reg 10 00000000
       2112 000010f4
       2113 000010f8
       2114 00001100
write reg 13 00000100
       2115 00001104
write reg 12 00000300
       2116 00001108
       2117 0000110c
       2118 000010f4
       2119 000010f8
write reg 11 00000018
       2120 000010fc
write reg 10 00000100
       2121 00001100
write reg 13 00000080
       2122 00001104
write reg 12 00000180
       2123 00001108
       2124 0000110c
       2125 000010f4
       2126 000010f8
       2127 00001100
write reg 13 00000040
       2128 00001104
write reg 12 000000c0
       2129 00001108
       2130 0000110c
       2131 000010f4
       2132 000010f8
       2133 00001100
write reg 13 00000020
       2134 00001104
write reg 12 00000060
       2135 00001108
       2136 0000110c
       2137 000010f4
       2138 000010f8
       2139 00001100
write reg 13 00000010
       2140 00001104
write reg 12 00000030
       2141 00001108
       2142 0000110c
       2143 000010f4
       2144 000010f8
       2145 00001100
write reg 13 00000008
       2146 00001104
write reg 12 00000018
       2147 00001108
       2148 0000110c
       2149 000010f4
       2150 000010f8
write reg 11 00000000
       2151 000010fc
write reg 10 00000108
       2152 00001100
write reg 13 00000004
       2153 00001104
write reg 12 0000000c
       2154 00001108
       2155 0000110c
       2156 000010f4
       2157 000010f8
       2158 00001100
write reg 13 00000002
       2159 00001104
write reg 12 00000006
       2160 00001108
       2161 0000110c
       2162 000010f4
       2163 000010f8
       2164 00001100
write reg 13 00000001
       2165 00001104
write reg 12 00000003
       2166 00001108
       2167 0000110c
       2168 000010f4
       2169 000010f8
       2170 00001100
write reg 13 00000000
       2171 00001104
write reg 12 00000001
       2172 00001108
       2173 0000110c
       2174 00001110
       2175 00001068
write reg 15 00000108
       2176 0000106c
317850000 WRITE: 131052   8 1
317870000 WRITE: 131053   1 1
317890000 WRITE: 131054   0 1
       2177 00001070
317910000 WRITE: 131055   0 1
       2178 00001074
write reg 15 00000003
write reg 15 00000002
       2179 00001078
318470000 WRITE: 131044   2 1
318490000 WRITE: 131045   0 1
318510000 WRITE: 131046   0 1
       2180 0000107c
318530000 WRITE: 131047   0 1
       2181 00001080
write reg 15 00000002
       2182 00001084
       2183 0000105c
       2184 00001060
write reg 11 00000002
       2185 00001064
write reg 10 00000108
write reg  1 00001068
       2186 00001068
       2187 000010c0
       2188 000010c4
       2189 000010c8
write reg 12 00000002
       2190 000010cc
write reg 11 00000108
       2191 000010d0
write reg 10 ffffffff
       2192 000010d4
       2193 000010d8
write reg 13 00000001
       2194 000010dc
       2195 000010e0
       2196 000010e4
write reg 12 00000004
       2197 000010e8
write reg 13 00000002
       2198 000010ec
       2199 000010f0
       2200 000010e0
       2201 000010e4
write reg 12 00000008
       2202 000010e8
write reg 13 00000004
       2203 000010ec
       2204 000010f0
       2205 000010e0
       2206 000010e4
write reg 12 00000010
       2207 000010e8
write reg 13 00000008
       2208 000010ec
       2209 000010f0
       2210 000010e0
       2211 000010e4
write reg 12 00000020
       2212 000010e8
write reg 13 00000010
       2213 000010ec
       2214 000010f0
       2215 000010e0
       2216 000010e4
write reg 12 00000040
       2217 000010e8
write reg 13 00000020
       2218 000010ec
       2219 000010f0
       2220 000010e0
       2221 000010e4
write reg 12 00000080
       2222 000010e8
write reg 13 00000040
       2223 000010ec
       2224 000010f0
       2225 000010e0
       2226 000010e4
write reg 12 00000100
       2227 000010e8
write reg 13 00000080
       2228 000010ec
       2229 000010f0
       2230 000010e0
       2231 000010e4
write reg 12 00000200
       2232 000010e8
write reg 13 00000100
       2233 000010ec
       2234 000010f0
write reg 10 00000000
       2235 000010f4
       2236 000010f8
       2237 00001100
write reg 13 00000080
       2238 00001104
write reg 12 00000100
       2239 00001108
       2240 0000110c
       2241 000010f4
       2242 000010f8
write reg 11 00000008
       2243 000010fc
write reg 10 00000080
       2244 00001100
write reg 13 00000040
       2245 00001104
write reg 12 00000080
       2246 00001108
       2247 0000110c
       2248 000010f4
       2249 000010f8
       2250 00001100
write reg 13 00000020
       2251 00001104
write reg 12 00000040
       2252 00001108
       2253 0000110c
       2254 000010f4
       2255 000010f8
       2256 00001100
write reg 13 00000010
       2257 00001104
write reg 12 00000020
       2258 00001108
       2259 0000110c
       2260 000010f4
       2261 000010f8
       2262 00001100
write reg 13 00000008
       2263 00001104
write reg 12 00000010
       2264 00001108
       2265 0000110c
       2266 000010f4
       2267 000010f8
       2268 00001100
write reg 13 00000004
       2269 00001104
write reg 12 00000008
       2270 00001108
       2271 0000110c
       2272 000010f4
       2273 000010f8
write reg 11 00000000
       2274 000010fc
write reg 10 00000084
       2275 00001100
write reg 13 00000002
       2276 00001104
write reg 12 00000004
       2277 00001108
       2278 0000110c
       2279 000010f4
       2280 000010f8
       2281 00001100
write reg 13 00000001
       2282 00001104
write reg 12 00000002
       2283 00001108
       2284 0000110c
       2285 000010f4
       2286 000010f8
       2287 00001100
write reg 13 00000000
       2288 00001104
write reg 12 00000001
       2289 00001108
       2290 0000110c
       2291 00001110
       2292 00001068
write reg 15 00000084
       2293 0000106c
334870000 WRITE: 131052 132 1
334890000 WRITE: 131053   0 1
334910000 WRITE: 131054   0 1
       2294 00001070
334930000 WRITE: 131055   0 1
       2295 00001074
write reg 15 00000002
write reg 15 00000001
       2296 00001078
335490000 WRITE: 131044   1 1
335510000 WRITE: 131045   0 1
335530000 WRITE: 131046   0 1
       2297 0000107c
335550000 WRITE: 131047   0 1
       2298 00001080
write reg 15 00000001
       2299 00001084
       2300 0000105c
       2301 00001060
write reg 11 00000001
       2302 00001064
write reg 10 00000084
write reg  1 00001068
       2303 00001068
       2304 000010c0
       2305 000010c4
       2306 000010c8
write reg 12 00000001
       2307 000010cc
write reg 11 00000084
       2308 000010d0
write reg 10 ffffffff
       2309 000010d4
       2310 000010d8
write reg 13 00000001
       2311 000010dc
       2312 000010e0
       2313 000010e4
write reg 12 00000002
       2314 000010e8
write reg 13 00000002
       2315 000010ec
       2316 000010f0
       2317 000010e0
       2318 000010e4
write reg 12 00000004
       2319 000010e8
write reg 13 00000004
       2320 000010ec
       2321 000010f0
       2322 000010e0
       2323 000010e4
write reg 12 00000008
       2324 000010e8
write reg 13 00000008
       2325 000010ec
       2326 000010f0
       2327 000010e0
       2328 000010e4
write reg 12 00000010
       2329 000010e8
write reg 13 00000010
       2330 000010ec
       2331 000010f0
       2332 000010e0
       2333 000010e4
write reg 12 00000020
       2334 000010e8
write reg 13 00000020
       2335 000010ec
       2336 000010f0
       2337 000010e0
       2338 000010e4
write reg 12 00000040
       2339 000010e8
write reg 13 00000040
       2340 000010ec
       2341 000010f0
       2342 000010e0
       2343 000010e4
write reg 12 00000080
       2344 000010e8
write reg 13 00000080
       2345 000010ec
       2346 000010f0
       2347 000010e0
       2348 000010e4
write reg 12 00000100
       2349 000010e8
write reg 13 00000100
       2350 000010ec
       2351 000010f0
write reg 10 00000000
       2352 000010f4
       2353 000010f8
       2354 00001100
write reg 13 00000080
       2355 00001104
write reg 12 00000080
       2356 00001108
       2357 0000110c
       2358 000010f4
       2359 000010f8
write reg 11 00000004
       2360 000010fc
write reg 10 00000080
       2361 00001100
write reg 13 00000040
       2362 00001104
write reg 12 00000040
       2363 00001108
       2364 0000110c
       2365 000010f4
       2366 000010f8
       2367 00001100
write reg 13 00000020
       2368 00001104
write reg 12 00000020
       2369 00001108
       2370 0000110c
       2371 000010f4
       2372 000010f8
       2373 00001100
write reg 13 00000010
       2374 00001104
write reg 12 00000010
       2375 00001108
       2376 0000110c
       2377 000010f4
       2378 000010f8
       2379 00001100
write reg 13 00000008
       2380 00001104
write reg 12 00000008
       2381 00001108
       2382 0000110c
       2383 000010f4
       2384 000010f8
       2385 00001100
write reg 13 00000004
       2386 00001104
write reg 12 00000004
       2387 00001108
       2388 0000110c
       2389 000010f4
       2390 000010f8
write reg 11 00000000
       2391 000010fc
write reg 10 00000084
       2392 00001100
write reg 13 00000002
       2393 00001104
write reg 12 00000002
       2394 00001108
       2395 0000110c
       2396 000010f4
       2397 000010f8
       2398 00001100
write reg 13 00000001
       2399 00001104
write reg 12 00000001
       2400 00001108
       2401 0000110c
       2402 000010f4
       2403 000010f8
       2404 00001100
write reg 13 00000000
       2405 00001104
write reg 12 00000000
       2406 00001108
       2407 0000110c
       2408 00001110
       2409 00001068
write reg 15 00000084
       2410 0000106c
351890000 WRITE: 131052 132 1
351910000 WRITE: 131053   0 1
351930000 WRITE: 131054   0 1
       2411 00001070
351950000 WRITE: 131055   0 1
       2412 00001074
write reg 15 00000001
write reg 15 00000000
       2413 00001078
352510000 WRITE: 131044   0 1
352530000 WRITE: 131045   0 1
352550000 WRITE: 131046   0 1
       2414 0000107c
352570000 WRITE: 131047   0 1
       2415 00001080
write reg 15 00000000
       2416 00001084
       2417 00001088
write reg 15 00000084
write reg 10 00000084
       2418 0000108c
       2419 00001090
write reg  1 00000008
       2420 00001094
write reg  8 00000000
write reg  2 00020000
       2421 00001098
       2422 0000109c
       2423 00000008
write reg 10 000000ff
       2424 0000000c
write reg 13 00030000
       2425 00000010
354750000 WRITE:  65540 255 1
354770000 WRITE:  65541   0 1
354790000 WRITE:  65542   0 1
       2426 00000014
354810000 WRITE:  65543   0 1
       2427 00000018
       2428 0000000c
write reg 13 00030000
       2429 00000010
355390000 WRITE:  65540 255 1
355410000 WRITE:  65541   0 1
355430000 WRITE:  65542   0 1
       2430 00000014
355450000 WRITE:  65543   0 1
       2431 00000018
       2432 0000000c
write reg 13 00030000
       2433 00000010
356030000 WRITE:  65540 255 1
356050000 WRITE:  65541   0 1
356070000 WRITE:  65542   0 1
       2434 00000014
356090000 WRITE:  65543   0 1
       2435 00000018
       2436 0000000c
write reg 13 00030000
       2437 00000010
356670000 WRITE:  65540 255 1
356690000 WRITE:  65541   0 1
356710000 WRITE:  65542   0 1
       2438 00000014
356730000 WRITE:  65543   0 1
       2439 00000018
       2440 0000000c
write reg 13 00030000
       2441 00000010
357310000 WRITE:  65540 255 1
357330000 WRITE:  65541   0 1
357350000 WRITE:  65542   0 1
       2442 00000014
357370000 WRITE:  65543   0 1
       2443 00000018
       2444 0000000c
write reg 13 00030000
       2445 00000010
357950000 WRITE:  65540 255 1
357970000 WRITE:  65541   0 1
357990000 WRITE:  65542   0 1
       2446 00000014
358010000 WRITE:  65543   0 1
       2447 00000018
       2448 0000000c
write reg 13 00030000
       2449 00000010
358590000 WRITE:  65540 255 1
358610000 WRITE:  65541   0 1
358630000 WRITE:  65542   0 1
       2450 00000014
358650000 WRITE:  65543   0 1
       2451 00000018
       2452 0000000c
write reg 13 00030000
       2453 00000010
359230000 WRITE:  65540 255 1
359250000 WRITE:  65541   0 1
359270000 WRITE:  65542   0 1
       2454 00000014
359290000 WRITE:  65543   0 1
       2455 00000018
       2456 0000000c
write reg 13 00030000
       2457 00000010
359870000 WRITE:  65540 255 1
359890000 WRITE:  65541   0 1
359910000 WRITE:  65542   0 1
       2458 00000014
359930000 WRITE:  65543   0 1
       2459 00000018
       2460 0000000c
write reg 13 00030000
       2461 00000010
360510000 WRITE:  65540 255 1
360530000 WRITE:  65541   0 1
360550000 WRITE:  65542   0 1
       2462 00000014
360570000 WRITE:  65543   0 1
       2463 00000018
       2464 0000000c
write reg 13 00030000
       2465 00000010
361150000 WRITE:  65540 255 1
361170000 WRITE:  65541   0 1
361190000 WRITE:  65542   0 1
       2466 00000014
361210000 WRITE:  65543   0 1
       2467 00000018
       2468 0000000c
write reg 13 00030000
       2469 00000010
361790000 WRITE:  65540 255 1
361810000 WRITE:  65541   0 1
361830000 WRITE:  65542   0 1
       2470 00000014
361850000 WRITE:  65543   0 1
       2471 00000018
       2472 0000000c
write reg 13 00030000
       2473 00000010
362430000 WRITE:  65540 255 1
362450000 WRITE:  65541   0 1
362470000 WRITE:  65542   0 1
       2474 00000014
362490000 WRITE:  65543   0 1
       2475 00000018
       2476 0000000c
write reg 13 00030000
       2477 00000010
363070000 WRITE:  65540 255 1
363090000 WRITE:  65541   0 1
363110000 WRITE:  65542   0 1
       2478 00000014
363130000 WRITE:  65543   0 1
       2479 00000018
       2480 0000000c
write reg 13 00030000
       2481 00000010
363710000 WRITE:  65540 255 1
363730000 WRITE:  65541   0 1
363750000 WRITE:  65542   0 1
       2482 00000014
363770000 WRITE:  65543   0 1
       2483 00000018
       2484 0000000c
write reg 13 00030000
       2485 00000010
364350000 WRITE:  65540 255 1
364370000 WRITE:  65541   0 1
364390000 WRITE:  65542   0 1
       2486 00000014
364410000 WRITE:  65543   0 1
       2487 00000018
       2488 0000000c
write reg 13 00030000
       2489 00000010
364990000 WRITE:  65540 255 1
365010000 WRITE:  65541   0 1
365030000 WRITE:  65542   0 1
       2490 00000014
365050000 WRITE:  65543   0 1
       2491 00000018
       2492 0000000c
write reg 13 00030000
       2493 00000010
365630000 WRITE:  65540 255 1
365650000 WRITE:  65541   0 1
365670000 WRITE:  65542   0 1
       2494 00000014
365690000 WRITE:  65543   0 1
       2495 00000018
       2496 0000000c
write reg 13 00030000
       2497 00000010
366270000 WRITE:  65540 255 1
366290000 WRITE:  65541   0 1
366310000 WRITE:  65542   0 1
       2498 00000014
366330000 WRITE:  65543   0 1
       2499 00000018
       2500 0000000c
write reg 13 00030000
       2501 00000010
366910000 WRITE:  65540 255 1
366930000 WRITE:  65541   0 1
366950000 WRITE:  65542   0 1
       2502 00000014
366970000 WRITE:  65543   0 1
       2503 00000018
       2504 0000000c
write reg 13 00030000
       2505 00000010
367550000 WRITE:  65540 255 1
367570000 WRITE:  65541   0 1
367590000 WRITE:  65542   0 1
       2506 00000014
367610000 WRITE:  65543   0 1
       2507 00000018
       2508 0000000c
write reg 13 00030000
       2509 00000010
368190000 WRITE:  65540 255 1
368210000 WRITE:  65541   0 1
368230000 WRITE:  65542   0 1
       2510 00000014
368250000 WRITE:  65543   0 1
       2511 00000018
       2512 0000000c
write reg 13 00030000
       2513 00000010
368830000 WRITE:  65540 255 1
368850000 WRITE:  65541   0 1
368870000 WRITE:  65542   0 1
       2514 00000014
368890000 WRITE:  65543   0 1
       2515 00000018
       2516 0000000c
write reg 13 00030000
       2517 00000010
369470000 WRITE:  65540 255 1
369490000 WRITE:  65541   0 1
369510000 WRITE:  65542   0 1
       2518 00000014
369530000 WRITE:  65543   0 1
       2519 00000018
       2520 0000000c
write reg 13 00030000
       2521 00000010
370110000 WRITE:  65540 255 1
370130000 WRITE:  65541   0 1
370150000 WRITE:  65542   0 1
       2522 00000014
370170000 WRITE:  65543   0 1
       2523 00000018
       2524 0000000c
write reg 13 00030000
       2525 00000010
370750000 WRITE:  65540 255 1
370770000 WRITE:  65541   0 1
370790000 WRITE:  65542   0 1
       2526 00000014
370810000 WRITE:  65543   0 1
       2527 00000018
       2528 0000000c
write reg 13 00030000
       2529 00000010
371390000 WRITE:  65540 255 1
371410000 WRITE:  65541   0 1
371430000 WRITE:  65542   0 1
       2530 00000014
371450000 WRITE:  65543   0 1
       2531 00000018
       2532 0000000c
write reg 13 00030000
       2533 00000010
372030000 WRITE:  65540 255 1
372050000 WRITE:  65541   0 1
372070000 WRITE:  65542   0 1
       2534 00000014
372090000 WRITE:  65543   0 1
       2535 00000018
       2536 0000000c
write reg 13 00030000
       2537 00000010
372670000 WRITE:  65540 255 1
372690000 WRITE:  65541   0 1
372710000 WRITE:  65542   0 1
       2538 00000014
372730000 WRITE:  65543   0 1
       2539 00000018
       2540 0000000c
write reg 13 00030000
       2541 00000010
373310000 WRITE:  65540 255 1
373330000 WRITE:  65541   0 1
373350000 WRITE:  65542   0 1
       2542 00000014
373370000 WRITE:  65543   0 1
       2543 00000018
       2544 0000000c
write reg 13 00030000
       2545 00000010
373950000 WRITE:  65540 255 1
373970000 WRITE:  65541   0 1
373990000 WRITE:  65542   0 1
       2546 00000014
374010000 WRITE:  65543   0 1
       2547 00000018
       2548 0000000c
write reg 13 00030000
       2549 00000010
374590000 WRITE:  65540 255 1
374610000 WRITE:  65541   0 1
374630000 WRITE:  65542   0 1
       2550 00000014
374650000 WRITE:  65543   0 1
       2551 00000018
       2552 0000000c
write reg 13 00030000
       2553 00000010
375230000 WRITE:  65540 255 1
375250000 WRITE:  65541   0 1
375270000 WRITE:  65542   0 1
       2554 00000014
375290000 WRITE:  65543   0 1
       2555 00000018
       2556 0000000c
write reg 13 00030000
       2557 00000010
375870000 WRITE:  65540 255 1
375890000 WRITE:  65541   0 1
375910000 WRITE:  65542   0 1
       2558 00000014
375930000 WRITE:  65543   0 1
       2559 00000018
       2560 0000000c
write reg 13 00030000
       2561 00000010
376510000 WRITE:  65540 255 1
376530000 WRITE:  65541   0 1
376550000 WRITE:  65542   0 1
       2562 00000014
376570000 WRITE:  65543   0 1
       2563 00000018
       2564 0000000c
write reg 13 00030000
       2565 00000010
377150000 WRITE:  65540 255 1
377170000 WRITE:  65541   0 1
377190000 WRITE:  65542   0 1
       2566 00000014
377210000 WRITE:  65543   0 1
       2567 00000018
       2568 0000000c
write reg 13 00030000
       2569 00000010
377790000 WRITE:  65540 255 1
377810000 WRITE:  65541   0 1
377830000 WRITE:  65542   0 1
       2570 00000014
377850000 WRITE:  65543   0 1
       2571 00000018
       2572 0000000c
write reg 13 00030000
       2573 00000010
378430000 WRITE:  65540 255 1
378450000 WRITE:  65541   0 1
378470000 WRITE:  65542   0 1
       2574 00000014
378490000 WRITE:  65543   0 1
       2575 00000018
       2576 0000000c
write reg 13 00030000
       2577 00000010
379070000 WRITE:  65540 255 1
379090000 WRITE:  65541   0 1
379110000 WRITE:  65542   0 1
       2578 00000014
379130000 WRITE:  65543   0 1
       2579 00000018
       2580 0000000c
write reg 13 00030000
       2581 00000010
379710000 WRITE:  65540 255 1
379730000 WRITE:  65541   0 1
379750000 WRITE:  65542   0 1
       2582 00000014
379770000 WRITE:  65543   0 1
       2583 00000018
       2584 0000000c
write reg 13 00030000
       2585 00000010
380350000 WRITE:  65540 255 1
380370000 WRITE:  65541   0 1
380390000 WRITE:  65542   0 1
       2586 00000014
380410000 WRITE:  65543   0 1
       2587 00000018
       2588 0000000c
write reg 13 00030000
       2589 00000010
380990000 WRITE:  65540 255 1
381010000 WRITE:  65541   0 1
381030000 WRITE:  65542   0 1
       2590 00000014
381050000 WRITE:  65543   0 1
       2591 00000018
       2592 0000000c
write reg 13 00030000
       2593 00000010
381630000 WRITE:  65540 255 1
381650000 WRITE:  65541   0 1
381670000 WRITE:  65542   0 1
       2594 00000014
381690000 WRITE:  65543   0 1
       2595 00000018
       2596 0000000c
write reg 13 00030000
       2597 00000010
382270000 WRITE:  65540 255 1
382290000 WRITE:  65541   0 1
382310000 WRITE:  65542   0 1
       2598 00000014
382330000 WRITE:  65543   0 1
       2599 00000018
       2600 0000000c
write reg 13 00030000
       2601 00000010
382910000 WRITE:  65540 255 1
382930000 WRITE:  65541   0 1
382950000 WRITE:  65542   0 1
       2602 00000014
382970000 WRITE:  65543   0 1
       2603 00000018
       2604 0000000c
write reg 13 00030000
       2605 00000010
383550000 WRITE:  65540 255 1
383570000 WRITE:  65541   0 1
383590000 WRITE:  65542   0 1
       2606 00000014
383610000 WRITE:  65543   0 1
       2607 00000018
       2608 0000000c
write reg 13 00030000
       2609 00000010
384190000 WRITE:  65540 255 1
384210000 WRITE:  65541   0 1
384230000 WRITE:  65542   0 1
       2610 00000014
384250000 WRITE:  65543   0 1
       2611 00000018
       2612 0000000c
write reg 13 00030000
       2613 00000010
384830000 WRITE:  65540 255 1
384850000 WRITE:  65541   0 1
384870000 WRITE:  65542   0 1
       2614 00000014
384890000 WRITE:  65543   0 1
       2615 00000018
       2616 0000000c
write reg 13 00030000
       2617 00000010
385470000 WRITE:  65540 255 1
385490000 WRITE:  65541   0 1
385510000 WRITE:  65542   0 1
       2618 00000014
385530000 WRITE:  65543   0 1
       2619 00000018
       2620 0000000c
write reg 13 00030000
       2621 00000010
386110000 WRITE:  65540 255 1
386130000 WRITE:  65541   0 1
386150000 WRITE:  65542   0 1
       2622 00000014
386170000 WRITE:  65543   0 1
       2623 00000018
       2624 0000000c
write reg 13 00030000
       2625 00000010
386750000 WRITE:  65540 255 1
386770000 WRITE:  65541   0 1
386790000 WRITE:  65542   0 1
       2626 00000014
386810000 WRITE:  65543   0 1
       2627 00000018
       2628 0000000c
write reg 13 00030000
       2629 00000010
387390000 WRITE:  65540 255 1
387410000 WRITE:  65541   0 1
387430000 WRITE:  65542   0 1
       2630 00000014
387450000 WRITE:  65543   0 1
       2631 00000018
       2632 0000000c
write reg 13 00030000
       2633 00000010
388030000 WRITE:  65540 255 1
388050000 WRITE:  65541   0 1
388070000 WRITE:  65542   0 1
       2634 00000014
388090000 WRITE:  65543   0 1
       2635 00000018
       2636 0000000c
write reg 13 00030000
       2637 00000010
388670000 WRITE:  65540 255 1
388690000 WRITE:  65541   0 1
388710000 WRITE:  65542   0 1
       2638 00000014
388730000 WRITE:  65543   0 1
       2639 00000018
       2640 0000000c
write reg 13 00030000
       2641 00000010
389310000 WRITE:  65540 255 1
389330000 WRITE:  65541   0 1
389350000 WRITE:  65542   0 1
       2642 00000014
389370000 WRITE:  65543   0 1
       2643 00000018
       2644 0000000c
write reg 13 00030000
       2645 00000010
389950000 WRITE:  65540 255 1
389970000 WRITE:  65541   0 1
389990000 WRITE:  65542   0 1
       2646 00000014
390010000 WRITE:  65543   0 1
       2647 00000018
       2648 0000000c
write reg 13 00030000
       2649 00000010
390590000 WRITE:  65540 255 1
390610000 WRITE:  65541   0 1
390630000 WRITE:  65542   0 1
       2650 00000014
390650000 WRITE:  65543   0 1
       2651 00000018
       2652 0000000c
write reg 13 00030000
       2653 00000010
391230000 WRITE:  65540 255 1
391250000 WRITE:  65541   0 1
391270000 WRITE:  65542   0 1
       2654 00000014
391290000 WRITE:  65543   0 1
       2655 00000018
       2656 0000000c
write reg 13 00030000
       2657 00000010
391870000 WRITE:  65540 255 1
391890000 WRITE:  65541   0 1
391910000 WRITE:  65542   0 1
       2658 00000014
391930000 WRITE:  65543   0 1
       2659 00000018
       2660 0000000c
write reg 13 00030000
       2661 00000010
392510000 WRITE:  65540 255 1
392530000 WRITE:  65541   0 1
392550000 WRITE:  65542   0 1
       2662 00000014
392570000 WRITE:  65543   0 1
       2663 00000018
       2664 0000000c
write reg 13 00030000
       2665 00000010
393150000 WRITE:  65540 255 1
393170000 WRITE:  65541   0 1
393190000 WRITE:  65542   0 1
       2666 00000014
393210000 WRITE:  65543   0 1
       2667 00000018
       2668 0000000c
write reg 13 00030000
       2669 00000010
393790000 WRITE:  65540 255 1
393810000 WRITE:  65541   0 1
393830000 WRITE:  65542   0 1
       2670 00000014
393850000 WRITE:  65543   0 1
       2671 00000018
       2672 0000000c
write reg 13 00030000
       2673 00000010
394430000 WRITE:  65540 255 1
394450000 WRITE:  65541   0 1
394470000 WRITE:  65542   0 1
       2674 00000014
394490000 WRITE:  65543   0 1
       2675 00000018
       2676 0000000c
write reg 13 00030000
       2677 00000010
395070000 WRITE:  65540 255 1
395090000 WRITE:  65541   0 1
395110000 WRITE:  65542   0 1
       2678 00000014
395130000 WRITE:  65543   0 1
       2679 00000018
       2680 0000000c
write reg 13 00030000
       2681 00000010
395710000 WRITE:  65540 255 1
395730000 WRITE:  65541   0 1
395750000 WRITE:  65542   0 1
       2682 00000014
395770000 WRITE:  65543   0 1
       2683 00000018
       2684 0000000c
write reg 13 00030000
       2685 00000010
396350000 WRITE:  65540 255 1
396370000 WRITE:  65541   0 1
396390000 WRITE:  65542   0 1
       2686 00000014
396410000 WRITE:  65543   0 1
       2687 00000018
       2688 0000000c
write reg 13 00030000
       2689 00000010
396990000 WRITE:  65540 255 1
397010000 WRITE:  65541   0 1
397030000 WRITE:  65542   0 1
       2690 00000014
397050000 WRITE:  65543   0 1
       2691 00000018
       2692 0000000c
write reg 13 00030000
       2693 00000010
397630000 WRITE:  65540 255 1
397650000 WRITE:  65541   0 1
397670000 WRITE:  65542   0 1
       2694 00000014
397690000 WRITE:  65543   0 1
       2695 00000018
       2696 0000000c
write reg 13 00030000
       2697 00000010
398270000 WRITE:  65540 255 1
398290000 WRITE:  65541   0 1
398310000 WRITE:  65542   0 1
       2698 00000014
398330000 WRITE:  65543   0 1
       2699 00000018
       2700 0000000c
write reg 13 00030000
       2701 00000010
398910000 WRITE:  65540 255 1
398930000 WRITE:  65541   0 1
398950000 WRITE:  65542   0 1
       2702 00000014
398970000 WRITE:  65543   0 1
       2703 00000018
       2704 0000000c
write reg 13 00030000
       2705 00000010
399550000 WRITE:  65540 255 1
399570000 WRITE:  65541   0 1
399590000 WRITE:  65542   0 1
       2706 00000014
399610000 WRITE:  65543   0 1
       2707 00000018
       2708 0000000c
write reg 13 00030000
       2709 00000010
400190000 WRITE:  65540 255 1
400210000 WRITE:  65541   0 1
400230000 WRITE:  65542   0 1
       2710 00000014
400250000 WRITE:  65543   0 1
       2711 00000018
       2712 0000000c
write reg 13 00030000
       2713 00000010
400830000 WRITE:  65540 255 1
400850000 WRITE:  65541   0 1
400870000 WRITE:  65542   0 1
       2714 00000014
400890000 WRITE:  65543   0 1
       2715 00000018
       2716 0000000c
write reg 13 00030000
       2717 00000010
401470000 WRITE:  65540 255 1
401490000 WRITE:  65541   0 1
401510000 WRITE:  65542   0 1
       2718 00000014
401530000 WRITE:  65543   0 1
       2719 00000018
       2720 0000000c
write reg 13 00030000
       2721 00000010
402110000 WRITE:  65540 255 1
402130000 WRITE:  65541   0 1
402150000 WRITE:  65542   0 1
       2722 00000014
402170000 WRITE:  65543   0 1
       2723 00000018
       2724 0000000c
write reg 13 00030000
       2725 00000010
402750000 WRITE:  65540 255 1
402770000 WRITE:  65541   0 1
402790000 WRITE:  65542   0 1
       2726 00000014
402810000 WRITE:  65543   0 1
       2727 00000018
       2728 0000000c
write reg 13 00030000
       2729 00000010
403390000 WRITE:  65540 255 1
403410000 WRITE:  65541   0 1
403430000 WRITE:  65542   0 1
       2730 00000014
403450000 WRITE:  65543   0 1
       2731 00000018
       2732 0000000c
write reg 13 00030000
       2733 00000010
404030000 WRITE:  65540 255 1
404050000 WRITE:  65541   0 1
404070000 WRITE:  65542   0 1
       2734 00000014
404090000 WRITE:  65543   0 1
       2735 00000018
       2736 0000000c
write reg 13 00030000
       2737 00000010
404670000 WRITE:  65540 255 1
404690000 WRITE:  65541   0 1
404710000 WRITE:  65542   0 1
       2738 00000014
404730000 WRITE:  65543   0 1
       2739 00000018
       2740 0000000c
write reg 13 00030000
       2741 00000010
405310000 WRITE:  65540 255 1
405330000 WRITE:  65541   0 1
405350000 WRITE:  65542   0 1
       2742 00000014
405370000 WRITE:  65543   0 1
       2743 00000018
       2744 0000000c
write reg 13 00030000
       2745 00000010
405950000 WRITE:  65540 255 1
405970000 WRITE:  65541   0 1
405990000 WRITE:  65542   0 1
       2746 00000014
406010000 WRITE:  65543   0 1
       2747 00000018
       2748 0000000c
write reg 13 00030000
       2749 00000010
406590000 WRITE:  65540 255 1
406610000 WRITE:  65541   0 1
406630000 WRITE:  65542   0 1
       2750 00000014
406650000 WRITE:  65543   0 1
       2751 00000018
       2752 0000000c
write reg 13 00030000
       2753 00000010
407230000 WRITE:  65540 255 1
407250000 WRITE:  65541   0 1
407270000 WRITE:  65542   0 1
       2754 00000014
407290000 WRITE:  65543   0 1
       2755 00000018
       2756 0000000c
write reg 13 00030000
       2757 00000010
407870000 WRITE:  65540 255 1
407890000 WRITE:  65541   0 1
407910000 WRITE:  65542   0 1
       2758 00000014
407930000 WRITE:  65543   0 1
       2759 00000018
       2760 0000000c
